Time [s],Value,Parity Error,Framing Error
0.023278250000000,0xFE,,
0.023365166666667,0x26,,
0.023452000000000,0x7B,,
0.023538916666667,0x04,,
0.023625833333333,0x00,,
0.023712916666667,0x01,,
0.023799833333333,0x00,,
0.023886583333333,0x08,,
0.023973500000000,0x00,,
0.024060416666667,0x00,,
0.024147416666667,0x00,,
0.024234416666667,0x00,,
0.024321416666667,0x00,,
0.024408250000000,0x00,,
0.024495166666667,0x00,,
0.024582083333333,0x00,,
0.024669083333333,0x00,,
0.024756083333333,0x00,,
0.024843000000000,0x00,,
0.024929833333333,0x00,,
0.025016833333333,0x00,,
0.025103750000000,0x00,,
0.025190916666667,0x00,,
0.025277750000000,0x00,,
0.025364583333333,0x00,,
0.025451500000000,0x00,,
0.025538416666667,0x94,,
0.025625416666667,0x80,,
0.025712416666667,0x08,,
0.025799333333333,0x00,,
0.025886250000000,0x80,,
0.025973166666667,0x07,,
0.026060083333333,0xFA,,
0.026147083333333,0x80,,
0.026234083333333,0x08,,
0.026320916666667,0x00,,
0.026407916666667,0x2A,,
0.026494833333333,0x28,,
0.026581750000000,0x00,,
0.026668750000000,0x88,,
0.026755750000000,0x82,,
0.026842583333333,0xAB,,
0.026929500000000,0xFF,,
0.027016500000000,0xFF,,
0.027103500000000,0xFF,,
0.027190416666667,0x00,,
0.027277333333333,0x7B,,
0.027364250000000,0xAB,,
0.193426333333333,0xFE,,
0.193513250000000,0x26,,
0.193600166666667,0x7C,,
0.193687250000000,0x04,,
0.193774166666667,0x00,,
0.193861000000000,0x01,,
0.193947916666667,0x00,,
0.194035000000000,0x08,,
0.194122000000000,0x00,,
0.194208833333333,0x00,,
0.194295750000000,0x00,,
0.194382666666667,0x00,,
0.194469750000000,0x00,,
0.194556833333333,0x00,,
0.194643583333333,0x00,,
0.194730416666667,0x00,,
0.194817416666667,0x00,,
0.194904500000000,0x00,,
0.194991416666667,0x00,,
0.195078250000000,0x00,,
0.195165166666667,0x00,,
0.195252083333333,0x00,,
0.195339166666667,0x00,,
0.195426166666667,0x00,,
0.195512916666667,0x00,,
0.195599833333333,0x00,,
0.195686750000000,0x95,,
0.195773916666667,0x80,,
0.195860750000000,0x08,,
0.195947583333333,0x00,,
0.196034583333333,0x80,,
0.196121500000000,0x07,,
0.196208583333333,0xFA,,
0.196295416666667,0x80,,
0.196382333333333,0x08,,
0.196469250000000,0x00,,
0.196556333333333,0x2A,,
0.196643333333333,0x28,,
0.196730083333333,0x00,,
0.196817000000000,0x88,,
0.196904000000000,0x82,,
0.196991000000000,0xAB,,
0.197078000000000,0xFF,,
0.197164833333333,0xFF,,
0.197251750000000,0xFF,,
0.197338750000000,0x00,,
0.197425750000000,0xB6,,
0.197512750000000,0x1E,,
0.362677916666667,0xFE,,
0.362764833333333,0x26,,
0.362851750000000,0x7D,,
0.362938750000000,0x04,,
0.363025750000000,0x00,,
0.363112583333333,0x01,,
0.363199500000000,0x00,,
0.363286416666667,0x08,,
0.363373416666667,0x00,,
0.363460416666667,0x00,,
0.363547333333333,0x00,,
0.363634250000000,0x00,,
0.363721166666667,0x00,,
0.363808083333333,0x00,,
0.363895083333333,0x00,,
0.363982083333333,0x00,,
0.364068916666667,0x00,,
0.364155833333333,0x00,,
0.364242833333333,0x00,,
0.364329750000000,0x00,,
0.364416750000000,0x00,,
0.364503666666667,0x00,,
0.364590583333333,0x00,,
0.364677500000000,0x00,,
0.364764416666667,0x00,,
0.364851416666667,0x00,,
0.364938416666667,0x96,,
0.365025250000000,0x80,,
0.365112250000000,0x08,,
0.365199166666667,0x00,,
0.365286166666667,0x80,,
0.365373083333333,0x07,,
0.365460000000000,0xFA,,
0.365546916666667,0x80,,
0.365633833333333,0x08,,
0.365720833333333,0x00,,
0.365807833333333,0x2A,,
0.365894666666667,0x28,,
0.365981583333333,0x00,,
0.366068583333333,0x88,,
0.366155500000000,0x82,,
0.366242500000000,0xAB,,
0.366329500000000,0xFF,,
0.366416333333333,0xFF,,
0.366503250000000,0xFF,,
0.366590250000000,0x00,,
0.366677250000000,0x39,,
0.366764250000000,0x71,,
0.425703916666667,0xFE,,
0.425790833333333,0x0B,,
0.425877666666667,0x7E,,
0.425964583333333,0x03,,
0.426051583333333,0x00,,
0.426138583333333,0x01,,
0.426225500000000,0x00,,
0.426312416666667,0xFF,,
0.426399333333333,0xBC,,
0.426486250000000,0x03,,
0.426573250000000,0x01,,
0.426660250000000,0xC8,,
0.426747083333333,0x01,,
0.426834083333333,0x33,,
0.426921000000000,0x01,,
0.427007916666667,0x00,,
0.427094916666667,0x01,,
0.427181916666667,0x8C,,
0.427268750000000,0x66,,
0.427355666666667,0x31,,
0.427442583333333,0xC5,,
0.427693000000000,0xFE,,
0.427780000000000,0x0B,,
0.427866833333333,0x7F,,
0.427953750000000,0x03,,
0.428040666666667,0x00,,
0.428127666666667,0x01,,
0.428214666666667,0x00,,
0.428301583333333,0xFF,,
0.428388500000000,0xBC,,
0.428475416666667,0x03,,
0.428562416666667,0x01,,
0.428649333333333,0xC8,,
0.428736250000000,0x01,,
0.428823166666667,0x33,,
0.428910083333333,0x02,,
0.428997083333333,0x00,,
0.429084083333333,0x01,,
0.429171083333333,0xE8,,
0.429257916666667,0x89,,
0.429344833333333,0xD6,,
0.429431750000000,0x3D,,
0.429698416666667,0xFE,,
0.429785250000000,0x0B,,
0.429872250000000,0x80,,
0.429959166666667,0x03,,
0.430046166666667,0x00,,
0.430133083333333,0x01,,
0.430220000000000,0x00,,
0.430306916666667,0xFF,,
0.430393833333333,0xBC,,
0.430480833333333,0x03,,
0.430567750000000,0x01,,
0.430654666666667,0xC8,,
0.430741583333333,0x01,,
0.430828583333333,0x33,,
0.430915500000000,0x02,,
0.431002500000000,0x00,,
0.431089500000000,0x01,,
0.431176333333333,0x34,,
0.431263250000000,0xD3,,
0.431350250000000,0xA5,,
0.431437166666667,0x61,,
0.538896416666667,0xFE,,
0.538983333333333,0x26,,
0.539070333333333,0x81,,
0.539157333333333,0x04,,
0.539244166666667,0x00,,
0.539331083333333,0x01,,
0.539418000000000,0x00,,
0.539505000000000,0x08,,
0.539592000000000,0x00,,
0.539678916666667,0x00,,
0.539765833333333,0x00,,
0.539852750000000,0x00,,
0.539939666666667,0x00,,
0.540026666666667,0x00,,
0.540113666666667,0x00,,
0.540200500000000,0x00,,
0.540287416666667,0x00,,
0.540374416666667,0x00,,
0.540461333333333,0x00,,
0.540548333333333,0x00,,
0.540635333333333,0x00,,
0.540722166666667,0x00,,
0.540809083333333,0x00,,
0.540896000000000,0x00,,
0.540983083333333,0x00,,
0.541070000000000,0x00,,
0.541156916666667,0x97,,
0.541243833333333,0x80,,
0.541330750000000,0x08,,
0.541417750000000,0x00,,
0.541504750000000,0x80,,
0.541591666666667,0x07,,
0.541678500000000,0xFA,,
0.541765416666667,0x80,,
0.541852416666667,0x08,,
0.541939416666667,0x00,,
0.542026416666667,0x2A,,
0.542113250000000,0x28,,
0.542200166666667,0x00,,
0.542287083333333,0x88,,
0.542374083333333,0x82,,
0.542461083333333,0xAB,,
0.542548000000000,0xFF,,
0.542634916666667,0xFF,,
0.542721833333333,0xFF,,
0.542808750000000,0x00,,
0.542895750000000,0xC3,,
0.542982750000000,0x89,,
0.637845583333333,0xFE,,
0.637932500000000,0x11,,
0.638019416666667,0x82,,
0.638106500000000,0x03,,
0.638193500000000,0x00,,
0.638280333333333,0x01,,
0.638367250000000,0x00,,
0.638454166666667,0xFF,,
0.638541250000000,0xBC,,
0.638628250000000,0x09,,
0.638715000000000,0x01,,
0.638801916666667,0xC8,,
0.638888833333333,0x01,,
0.638975750000000,0x00,,
0.639062916666667,0x00,,
0.639149750000000,0x00,,
0.639236666666667,0x00,,
0.639323583333333,0x00,,
0.639410500000000,0x02,,
0.639497583333333,0x03,,
0.639584500000000,0x04,,
0.639671333333333,0x04,,
0.639758250000000,0x03,,
0.639845166666667,0xB3,,
0.639932333333333,0x61,,
0.640019250000000,0xF1,,
0.640106083333333,0x61,,
0.721967166666667,0xFE,,
0.722054083333333,0x26,,
0.722141166666667,0x83,,
0.722228166666667,0x04,,
0.722315000000000,0x00,,
0.722401916666667,0x01,,
0.722488833333333,0x00,,
0.722575916666667,0x08,,
0.722662916666667,0x00,,
0.722749666666667,0x00,,
0.722836583333333,0x00,,
0.722923500000000,0x00,,
0.723010583333333,0x00,,
0.723097500000000,0x00,,
0.723184333333333,0x00,,
0.723271250000000,0x00,,
0.723358250000000,0x00,,
0.723445333333333,0x00,,
0.723532250000000,0x00,,
0.723619083333333,0x00,,
0.723706000000000,0x00,,
0.723792916666667,0x00,,
0.723880083333333,0x00,,
0.723966833333333,0x00,,
0.724053750000000,0x00,,
0.724140666666667,0x00,,
0.724227750000000,0x98,,
0.724314750000000,0x80,,
0.724401583333333,0x08,,
0.724488500000000,0x00,,
0.724575416666667,0x80,,
0.724662500000000,0x07,,
0.724749500000000,0xFA,,
0.724836250000000,0x80,,
0.724923166666667,0x08,,
0.725010083333333,0x00,,
0.725097166666667,0x2A,,
0.725184166666667,0x28,,
0.725271000000000,0x00,,
0.725357916666667,0x88,,
0.725444833333333,0x82,,
0.725531916666667,0xAB,,
0.725618750000000,0xFF,,
0.725705666666667,0xFF,,
0.725792583333333,0xFF,,
0.725879666666667,0x00,,
0.725966666666667,0xC0,,
0.726053500000000,0xD2,,
0.860145250000000,0xFE,,
0.860232250000000,0x03,,
0.860319250000000,0x85,,
0.860406083333333,0x03,,
0.860493083333333,0x00,,
0.860580000000000,0x00,,
0.860666916666667,0x00,,
0.860753916666667,0x01,,
0.860840833333333,0x01,,
0.860927750000000,0x00,,
0.861014666666667,0x01,,
0.861101583333333,0xF5,,
0.861188666666667,0xE8,,
0.862077250000000,0xFE,,
0.862164250000000,0x03,,
0.862251250000000,0x86,,
0.862338083333333,0x03,,
0.862425083333333,0x00,,
0.862512000000000,0x00,,
0.862599000000000,0x00,,
0.862686000000000,0x01,,
0.862772833333333,0x06,,
0.862859750000000,0x00,,
0.862946666666667,0x01,,
0.863033666666667,0xBD,,
0.863120666666667,0xCB,,
0.864101500000000,0xFE,,
0.864188500000000,0x14,,
0.864275416666667,0x87,,
0.864362333333333,0x03,,
0.864449250000000,0x00,,
0.864536166666667,0x05,,
0.864623166666667,0x00,,
0.864710166666667,0x14,,
0.864797083333333,0x05,,
0.864884000000000,0x00,,
0.864970916666667,0x51,,
0.865057833333333,0x32,,
0.865144833333333,0x53,,
0.865231833333333,0x59,,
0.865318666666667,0x53,,
0.865405583333333,0x5F,,
0.865492583333333,0x53,,
0.865579583333333,0x57,,
0.865666500000000,0x5F,,
0.865753416666667,0x56,,
0.865840333333333,0x45,,
0.865927250000000,0x52,,
0.866014250000000,0x00,,
0.866101250000000,0x00,,
0.866188083333333,0x00,,
0.866275000000000,0x00,,
0.866361916666667,0x00,,
0.866448916666667,0x00,,
0.866535916666667,0x0F,,
0.866622833333333,0x0B,,
0.868081000000000,0xFE,,
0.868167916666667,0x1F,,
0.868254916666667,0x62,,
0.868341916666667,0x03,,
0.868428833333333,0x00,,
0.868515750000000,0x01,,
0.868602666666667,0x00,,
0.868689583333333,0x4C,,
0.868776583333333,0x00,,
0.868863583333333,0x00,,
0.868950416666667,0x00,,
0.869037333333333,0x41,,
0.869124250000000,0x00,,
0.869211250000000,0x00,,
0.869298250000000,0x00,,
0.869385166666667,0x00,,
0.869472083333333,0x00,,
0.869559000000000,0x00,,
0.869645916666667,0x00,,
0.869732916666667,0x00,,
0.869819916666667,0x00,,
0.869906750000000,0x00,,
0.869993666666667,0x00,,
0.870080666666667,0x00,,
0.870167666666667,0x00,,
0.870254583333333,0x00,,
0.870341500000000,0x00,,
0.870428416666667,0x00,,
0.870515333333333,0x00,,
0.870602333333333,0x00,,
0.870689333333333,0x00,,
0.870776166666667,0x00,,
0.870863166666667,0x00,,
0.870950083333333,0x00,,
0.871037000000000,0x00,,
0.871124000000000,0x00,,
0.871210916666667,0x04,,
0.871297833333333,0x01,,
0.871384750000000,0x00,,
0.871471750000000,0x6D,,
0.871558750000000,0x0E,,
0.888129916666667,0xFE,,
0.888216916666667,0x26,,
0.888303916666667,0x88,,
0.888390750000000,0x04,,
0.888477750000000,0x00,,
0.888564666666667,0x01,,
0.888651666666667,0x00,,
0.888738666666667,0x08,,
0.888825500000000,0x00,,
0.888912416666667,0x00,,
0.888999333333333,0x00,,
0.889086333333333,0x00,,
0.889173333333333,0x00,,
0.889260166666667,0x00,,
0.889347083333333,0x00,,
0.889434083333333,0x00,,
0.889521000000000,0x00,,
0.889608000000000,0x00,,
0.889695000000000,0x00,,
0.889781833333333,0x00,,
0.889868750000000,0x00,,
0.889955750000000,0x00,,
0.890042750000000,0x00,,
0.890129750000000,0x00,,
0.890216583333333,0x00,,
0.890303500000000,0x00,,
0.890390416666667,0x99,,
0.890477416666667,0x80,,
0.890564416666667,0x08,,
0.890651250000000,0x00,,
0.890738166666667,0x80,,
0.890825166666667,0x07,,
0.890912083333333,0xFA,,
0.890999083333333,0x80,,
0.891086000000000,0x08,,
0.891172916666667,0x00,,
0.891259833333333,0x2A,,
0.891346750000000,0x28,,
0.891433833333333,0x00,,
0.891520750000000,0x88,,
0.891607666666667,0x82,,
0.891694583333333,0xAB,,
0.891781500000000,0xFF,,
0.891868500000000,0xFF,,
0.891955500000000,0xFF,,
0.892042333333333,0x00,,
0.892129250000000,0x28,,
0.892216166666667,0x06,,
0.917142333333333,0xFE,,
0.917229333333333,0x05,,
0.917316333333333,0xDA,,
0.917403250000000,0x02,,
0.917490166666667,0x00,,
0.917577083333333,0x00,,
0.917664083333333,0x00,,
0.917751083333333,0x00,,
0.917837916666667,0x00,,
0.917924833333333,0x00,,
0.918011750000000,0x7D,,
0.918098750000000,0x00,,
0.918185750000000,0x01,,
0.918272750000000,0x12,,
0.918359583333333,0xA4,,
0.918446500000000,0xFE,,
0.918533416666667,0x06,,
0.918620416666667,0xDB,,
0.918707416666667,0x02,,
0.918794250000000,0x00,,
0.918881250000000,0x01,,
0.918968166666667,0x00,,
0.919055166666667,0x03,,
0.919142083333333,0x07,,
0.919229000000000,0x08,,
0.919315916666667,0xDD,,
0.919402833333333,0x37,,
0.919489750000000,0xFF,,
0.919576833333333,0x37,,
0.919663750000000,0x81,,
0.919750666666667,0x63,,
1.057276500000000,0xFE,,
1.057363583333333,0x26,,
1.057450500000000,0x89,,
1.057537333333333,0x04,,
1.057624250000000,0x00,,
1.057711166666667,0x01,,
1.057798333333333,0x00,,
1.057885250000000,0x08,,
1.057972083333333,0x00,,
1.058059000000000,0x00,,
1.058145916666667,0x00,,
1.058233000000000,0x00,,
1.058320000000000,0x00,,
1.058406750000000,0x00,,
1.058493666666667,0x00,,
1.058580583333333,0x00,,
1.058667666666667,0x00,,
1.058754666666667,0x00,,
1.058841500000000,0x00,,
1.058928416666667,0x00,,
1.059015333333333,0x00,,
1.059102416666667,0x00,,
1.059189416666667,0x00,,
1.059276166666667,0x00,,
1.059363083333333,0x00,,
1.059450000000000,0x00,,
1.059536916666667,0x9A,,
1.059624000000000,0x80,,
1.059711000000000,0x08,,
1.059797833333333,0x00,,
1.059884750000000,0x80,,
1.059971666666667,0x07,,
1.060058750000000,0xFA,,
1.060145750000000,0x80,,
1.060232583333333,0x08,,
1.060319416666667,0x00,,
1.060406416666667,0x2A,,
1.060493500000000,0x28,,
1.060580500000000,0x00,,
1.060667250000000,0x88,,
1.060754166666667,0x82,,
1.060841083333333,0xAB,,
1.060928166666667,0xFF,,
1.061015166666667,0xFF,,
1.061102000000000,0xFF,,
1.061188916666667,0x00,,
1.061275833333333,0xA7,,
1.061362916666667,0x69,,
1.231457500000000,0xFE,,
1.231544416666667,0x26,,
1.231631333333333,0x8A,,
1.231718416666667,0x04,,
1.231805250000000,0x00,,
1.231892166666667,0x01,,
1.231979083333333,0x00,,
1.232066166666667,0x08,,
1.232153083333333,0x00,,
1.232240000000000,0x00,,
1.232326916666667,0x00,,
1.232413833333333,0x00,,
1.232500833333333,0x00,,
1.232587750000000,0x00,,
1.232674666666667,0x00,,
1.232761583333333,0x00,,
1.232848583333333,0x00,,
1.232935583333333,0x00,,
1.233022416666667,0x00,,
1.233109416666667,0x00,,
1.233196333333333,0x00,,
1.233283333333333,0x00,,
1.233370250000000,0x00,,
1.233457166666667,0x00,,
1.233544083333333,0x00,,
1.233631000000000,0x00,,
1.233718000000000,0x9B,,
1.233805000000000,0x80,,
1.233891833333333,0x08,,
1.233978833333333,0x00,,
1.234065750000000,0x80,,
1.234152750000000,0x07,,
1.234239750000000,0xFA,,
1.234326500000000,0x80,,
1.234413500000000,0x08,,
1.234500500000000,0x00,,
1.234587500000000,0x2A,,
1.234674416666667,0x28,,
1.234761250000000,0x00,,
1.234848250000000,0x88,,
1.234935166666667,0x82,,
1.235022166666667,0xAB,,
1.235109083333333,0xFF,,
1.235196000000000,0xFF,,
1.235282916666667,0xFF,,
1.235369833333333,0x00,,
1.235456916666667,0x86,,
1.235543833333333,0x04,,
1.400592666666667,0xFE,,
1.400679583333333,0x26,,
1.400766583333333,0x8B,,
1.400853583333333,0x04,,
1.400940416666667,0x00,,
1.401027333333333,0x01,,
1.401114250000000,0x00,,
1.401201250000000,0x08,,
1.401288250000000,0x00,,
1.401375166666667,0x00,,
1.401462083333333,0x00,,
1.401549000000000,0x00,,
1.401635916666667,0x00,,
1.401722916666667,0x00,,
1.401809916666667,0x00,,
1.401896750000000,0x00,,
1.401983750000000,0x00,,
1.402070666666667,0x00,,
1.402157666666667,0x00,,
1.402244583333333,0x00,,
1.402331500000000,0x00,,
1.402418416666667,0x00,,
1.402505333333333,0x00,,
1.402592333333333,0x00,,
1.402679333333333,0x00,,
1.402766166666667,0x00,,
1.402853166666667,0x9C,,
1.402940083333333,0x80,,
1.403027000000000,0x08,,
1.403114000000000,0x00,,
1.403200916666667,0x80,,
1.403287833333333,0x07,,
1.403374750000000,0xFA,,
1.403461750000000,0x80,,
1.403548750000000,0x08,,
1.403635666666667,0x00,,
1.403722583333333,0x2A,,
1.403809500000000,0x28,,
1.403896416666667,0x00,,
1.403983416666667,0x88,,
1.404070416666667,0x82,,
1.404157250000000,0xAB,,
1.404244166666667,0xFF,,
1.404331083333333,0xFF,,
1.404418083333333,0xFF,,
1.404505083333333,0x00,,
1.404592000000000,0xB9,,
1.404678916666667,0xB6,,
1.587921833333333,0xFE,,
1.588008583333333,0x26,,
1.588095500000000,0x8C,,
1.588182416666667,0x04,,
1.588269416666667,0x00,,
1.588356500000000,0x01,,
1.588443250000000,0x00,,
1.588530166666667,0x08,,
1.588617083333333,0x00,,
1.588704250000000,0x00,,
1.588791250000000,0x00,,
1.588878000000000,0x00,,
1.588964916666667,0x00,,
1.589051833333333,0x00,,
1.589138916666667,0x00,,
1.589225916666667,0x00,,
1.589312666666667,0x00,,
1.589399583333333,0x00,,
1.589486583333333,0x00,,
1.589573666666667,0x00,,
1.589660666666667,0x00,,
1.589747416666667,0x00,,
1.589834333333333,0x00,,
1.589921250000000,0x00,,
1.590008333333333,0x00,,
1.590095333333333,0x00,,
1.590182083333333,0x9D,,
1.590269000000000,0x80,,
1.590355916666667,0x08,,
1.590442916666667,0x00,,
1.590529916666667,0x80,,
1.590616750000000,0x07,,
1.590703666666667,0xFA,,
1.590790583333333,0x80,,
1.590877666666667,0x08,,
1.590964583333333,0x00,,
1.591051500000000,0x2A,,
1.591138416666667,0x28,,
1.591225333333333,0x00,,
1.591312500000000,0x88,,
1.591399500000000,0x82,,
1.591486250000000,0xAB,,
1.591573166666667,0xFF,,
1.591660083333333,0xFF,,
1.591747166666667,0xFF,,
1.591834166666667,0x00,,
1.591920916666667,0x74,,
1.592007833333333,0x03,,
1.636840500000000,0xFE,,
1.636927583333333,0x11,,
1.637014333333333,0x8D,,
1.637101250000000,0x03,,
1.637188166666667,0x00,,
1.637275250000000,0x01,,
1.637362250000000,0x00,,
1.637449000000000,0xFF,,
1.637535916666667,0xBC,,
1.637622916666667,0x09,,
1.637709916666667,0x01,,
1.637796833333333,0xC8,,
1.637883666666667,0x01,,
1.637970583333333,0x00,,
1.638057583333333,0x00,,
1.638144666666667,0x00,,
1.638231666666667,0x00,,
1.638318416666667,0x00,,
1.638405416666667,0x02,,
1.638492333333333,0x03,,
1.638579416666667,0x04,,
1.638666250000000,0x04,,
1.638753166666667,0x03,,
1.638840083333333,0xB3,,
1.638927166666667,0x61,,
1.639014166666667,0x3E,,
1.639101000000000,0x23,,
1.748976333333333,0xFE,,
1.749063166666667,0x26,,
1.749150083333333,0x8E,,
1.749237083333333,0x04,,
1.749324083333333,0x00,,
1.749411083333333,0x01,,
1.749497916666667,0x00,,
1.749584833333333,0x08,,
1.749671750000000,0x00,,
1.749758750000000,0x00,,
1.749845750000000,0x00,,
1.749932583333333,0x00,,
1.750019500000000,0x00,,
1.750106416666667,0x00,,
1.750193500000000,0x00,,
1.750280333333333,0x00,,
1.750367333333333,0x00,,
1.750454250000000,0x00,,
1.750541250000000,0x00,,
1.750628250000000,0x00,,
1.750715083333333,0x00,,
1.750802000000000,0x00,,
1.750888916666667,0x00,,
1.750975916666667,0x00,,
1.751062916666667,0x00,,
1.751149750000000,0x00,,
1.751236666666667,0x9E,,
1.751323666666667,0x80,,
1.751410666666667,0x08,,
1.751497583333333,0x00,,
1.751584500000000,0x80,,
1.751671416666667,0x07,,
1.751758333333333,0xFA,,
1.751845416666667,0x80,,
1.751932333333333,0x08,,
1.752019166666667,0x00,,
1.752106083333333,0x2A,,
1.752193083333333,0x28,,
1.752280083333333,0x00,,
1.752367000000000,0x88,,
1.752453916666667,0x82,,
1.752540833333333,0xAB,,
1.752627833333333,0xFF,,
1.752714833333333,0xFF,,
1.752801666666667,0xFF,,
1.752888583333333,0x00,,
1.752975500000000,0xB6,,
1.753062583333333,0x36,,
1.861095916666667,0xFE,,
1.861182916666667,0x03,,
1.861269750000000,0x90,,
1.861356666666667,0x03,,
1.861443666666667,0x00,,
1.861530666666667,0x00,,
1.861617583333333,0x00,,
1.861704500000000,0x01,,
1.861791416666667,0x01,,
1.861878333333333,0x00,,
1.861965333333333,0x01,,
1.862052333333333,0x1C,,
1.862139166666667,0xA6,,
1.862226083333333,0xFE,,
1.862313083333333,0x03,,
1.862400000000000,0x91,,
1.862487000000000,0x03,,
1.862573916666667,0x00,,
1.862660833333333,0x00,,
1.862747750000000,0x00,,
1.862834666666667,0x01,,
1.862921750000000,0x06,,
1.863008666666667,0x00,,
1.863095500000000,0x01,,
1.863182500000000,0x1A,,
