Time [s],Value,Parity Error,Framing Error
0.014406083333333,0x55,,
0.014501583333333,0x55,,
0.014597000000000,0x18,,
0.014692500000000,0x00,,
0.014787916666667,0x26,,
0.014883416666667,0xC3,,
0.014978833333333,0xEB,,
0.015074250000000,0x00,,
0.015169750000000,0x80,,
0.015265166666667,0x08,,
0.015360666666667,0x00,,
0.015456083333333,0x80,,
0.015551583333333,0x07,,
0.015647000000000,0xFA,,
0.015742500000000,0x80,,
0.015837916666667,0x08,,
0.015933416666667,0x00,,
0.016028833333333,0x2A,,
0.016124333333333,0x28,,
0.016219750000000,0x00,,
0.016315250000000,0x88,,
0.016410666666667,0x82,,
0.016506166666667,0xAB,,
0.016601583333333,0xFF,,
0.016697000000000,0xFF,,
0.016792500000000,0xFF,,
0.016887916666667,0xAD,,
0.034425833333333,0x55,,
0.034521250000000,0x55,,
0.034616750000000,0x2B,,
0.034712250000000,0x03,,
0.034807666666667,0x27,,
0.034903083333333,0x8A,,
0.034998583333333,0xE4,,
0.035094000000000,0x00,,
0.035189500000000,0x80,,
0.035284916666667,0x08,,
0.035380416666667,0x00,,
0.035475833333333,0x80,,
0.035571333333333,0x07,,
0.035666750000000,0xFA,,
0.035762250000000,0x80,,
0.035857666666667,0x08,,
0.035953166666667,0x00,,
0.036048583333333,0x2A,,
0.036144000000000,0x28,,
0.036239500000000,0x00,,
0.036335000000000,0x88,,
0.036430416666667,0x82,,
0.036525916666667,0xAB,,
0.036621333333333,0xFF,,
0.036716750000000,0xFF,,
0.036812250000000,0xFF,,
0.036907750000000,0x00,,
0.037003166666667,0x00,,
0.037098583333333,0x00,,
0.037194083333333,0x00,,
0.037289500000000,0x00,,
0.037385000000000,0x00,,
0.037480416666667,0x00,,
0.037575916666667,0x00,,
0.037671333333333,0x00,,
0.037766750000000,0x00,,
0.037862250000000,0x00,,
0.037957750000000,0x00,,
0.038053166666667,0x00,,
0.038148666666667,0x00,,
0.038244083333333,0x00,,
0.038339500000000,0x00,,
0.038435000000000,0x00,,
0.038530500000000,0x00,,
0.038625916666667,0x00,,
0.038721333333333,0xF2,,
0.054594750000000,0x55,,
0.054690166666667,0x55,,
0.054785583333333,0x18,,
0.054881083333333,0x00,,
0.054976500000000,0x28,,
0.055072000000000,0x51,,
0.055167416666667,0xEB,,
0.055262916666667,0x00,,
0.055358333333333,0x80,,
0.055453750000000,0x08,,
0.055549250000000,0x00,,
0.055644750000000,0x80,,
0.055740166666667,0x07,,
0.055835583333333,0xFA,,
0.055931083333333,0x80,,
0.056026583333333,0x08,,
0.056122083333333,0x00,,
0.056217500000000,0x2A,,
0.056313000000000,0x28,,
0.056408416666667,0x00,,
0.056503833333333,0x88,,
0.056599333333333,0x82,,
0.056694833333333,0xAB,,
0.056790250000000,0xFF,,
0.056885666666667,0xFF,,
0.056981166666667,0xFF,,
0.057076583333333,0x1A,,
0.074684666666667,0x55,,
0.074780166666667,0x55,,
0.074875583333333,0x18,,
0.074971083333333,0x00,,
0.075066500000000,0x29,,
0.075162000000000,0x18,,
0.075257416666667,0xE3,,
0.075352916666667,0x00,,
0.075448333333333,0x80,,
0.075543750000000,0x08,,
0.075639250000000,0x00,,
0.075734750000000,0x80,,
0.075830166666667,0x07,,
0.075925583333333,0xFA,,
0.076021083333333,0x80,,
0.076116500000000,0x08,,
0.076212000000000,0x00,,
0.076307416666667,0x2A,,
0.076402916666667,0x28,,
0.076498333333333,0x00,,
0.076593750000000,0x88,,
0.076689250000000,0x82,,
0.076784750000000,0xAB,,
0.076880166666667,0xFF,,
0.076975666666667,0xFF,,
0.077071083333333,0xFF,,
0.077166500000000,0x4E,,
0.094956916666667,0x55,,
0.095052416666667,0x55,,
0.095147833333333,0x2B,,
0.095243250000000,0x03,,
0.095338750000000,0x29,,
0.095434166666667,0xDE,,
0.095529666666667,0xE6,,
0.095625083333333,0x00,,
0.095720583333333,0x80,,
0.095816000000000,0x08,,
0.095911416666667,0x00,,
0.096006916666667,0x80,,
0.096102416666667,0x07,,
0.096197833333333,0xFA,,
0.096293250000000,0x80,,
0.096388750000000,0x08,,
0.096484166666667,0x00,,
0.096579666666667,0x2A,,
0.096675166666667,0x28,,
0.096770583333333,0x00,,
0.096866000000000,0x88,,
0.096961500000000,0x82,,
0.097056916666667,0xAB,,
0.097152416666667,0xFF,,
0.097247833333333,0xFF,,
0.097343333333333,0xFF,,
0.097438750000000,0x00,,
0.097534250000000,0x00,,
0.097629666666667,0x00,,
0.097725166666667,0x00,,
0.097820583333333,0x00,,
0.097916083333333,0x00,,
0.098011500000000,0x00,,
0.098106916666667,0x00,,
0.098202416666667,0x00,,
0.098297916666667,0x00,,
0.098393333333333,0x00,,
0.098488750000000,0x00,,
0.098584250000000,0x00,,
0.098679666666667,0x00,,
0.098775166666667,0x00,,
0.098870583333333,0x00,,
0.098966083333333,0x00,,
0.099061500000000,0x00,,
0.099157000000000,0x00,,
0.099252416666667,0xC3,,
0.114847250000000,0x55,,
0.114942750000000,0x55,,
0.115038166666667,0x18,,
0.115133583333333,0x00,,
0.115229083333333,0x2A,,
0.115324583333333,0xA5,,
0.115420000000000,0xE6,,
0.115515416666667,0x00,,
0.115610916666667,0x80,,
0.115706333333333,0x08,,
0.115801833333333,0x00,,
0.115897250000000,0x80,,
0.115992750000000,0x07,,
0.116088166666667,0xFA,,
0.116183666666667,0x80,,
0.116279083333333,0x08,,
0.116374583333333,0x00,,
0.116470000000000,0x2A,,
0.116565500000000,0x28,,
0.116660916666667,0x00,,
0.116756333333333,0x88,,
0.116851833333333,0x82,,
0.116947333333333,0xAB,,
0.117042750000000,0xFF,,
0.117138250000000,0xFF,,
0.117233666666667,0xFF,,
0.117329083333333,0x4E,,
0.134937166666667,0x55,,
0.135032666666667,0x55,,
0.135128166666667,0x18,,
0.135223583333333,0x00,,
0.135319083333333,0x2B,,
0.135414500000000,0x6C,,
0.135509916666667,0xE6,,
0.135605416666667,0x00,,
0.135700916666667,0x80,,
0.135796333333333,0x08,,
0.135891750000000,0x00,,
0.135987250000000,0x80,,
0.136082666666667,0x07,,
0.136178166666667,0xFA,,
0.136273583333333,0x80,,
0.136369083333333,0x08,,
0.136464500000000,0x00,,
0.136559916666667,0x2A,,
0.136655416666667,0x28,,
0.136750916666667,0x00,,
0.136846333333333,0x88,,
0.136941833333333,0x82,,
0.137037250000000,0xAB,,
0.137132666666667,0xFF,,
0.137228166666667,0xFF,,
0.137323666666667,0xFF,,
0.137419083333333,0x54,,
0.155174750000000,0x55,,
0.155270166666667,0x55,,
0.155365583333333,0x2B,,
0.155461083333333,0x03,,
0.155556583333333,0x2C,,
0.155652000000000,0x33,,
0.155747500000000,0xEB,,
0.155842916666667,0x00,,
0.155938333333333,0x80,,
0.156033833333333,0x08,,
0.156129250000000,0x00,,
0.156224750000000,0x80,,
0.156320166666667,0x07,,
0.156415666666667,0xFA,,
0.156511083333333,0x80,,
0.156606583333333,0x08,,
0.156702000000000,0x00,,
0.156797500000000,0x2A,,
0.156892916666667,0x28,,
0.156988416666667,0x00,,
0.157083833333333,0x88,,
0.157179333333333,0x82,,
0.157274750000000,0xAB,,
0.157370250000000,0xFF,,
0.157465666666667,0xFF,,
0.157561083333333,0xFF,,
0.157656583333333,0x00,,
0.157752000000000,0x00,,
0.157847500000000,0x00,,
0.157942916666667,0x00,,
0.158038416666667,0x00,,
0.158133833333333,0x00,,
0.158229333333333,0x00,,
0.158324750000000,0x00,,
0.158420250000000,0x00,,
0.158515666666667,0x00,,
0.158611166666667,0x00,,
0.158706583333333,0x00,,
0.158802083333333,0x00,,
0.158897500000000,0x00,,
0.158993000000000,0x00,,
0.159088416666667,0x00,,
0.159183916666667,0x00,,
0.159279333333333,0x00,,
0.159374750000000,0x00,,
0.159470250000000,0x83,,
0.175134500000000,0x55,,
0.175230000000000,0x55,,
0.175325416666667,0x18,,
0.175420833333333,0x00,,
0.175516333333333,0x2C,,
0.175611833333333,0xFA,,
0.175707250000000,0xE3,,
0.175802666666667,0x00,,
0.175898166666667,0x80,,
0.175993583333333,0x08,,
0.176089083333333,0x00,,
0.176184583333333,0x80,,
0.176280000000000,0x07,,
0.176375416666667,0xFA,,
0.176470916666667,0x80,,
0.176566333333333,0x08,,
0.176661833333333,0x00,,
0.176757250000000,0x2A,,
0.176852750000000,0x28,,
0.176948166666667,0x00,,
0.177043583333333,0x88,,
0.177139083333333,0x82,,
0.177234583333333,0xAB,,
0.177330000000000,0xFF,,
0.177425416666667,0xFF,,
0.177520916666667,0xFF,,
0.177616333333333,0xAA,,
0.195189750000000,0x55,,
0.195285250000000,0x55,,
0.195380666666667,0x18,,
0.195476166666667,0x00,,
0.195571583333333,0x2D,,
0.195667083333333,0xC1,,
0.195762500000000,0xEB,,
0.195857916666667,0x00,,
0.195953416666667,0x80,,
0.196048916666667,0x08,,
0.196144333333333,0x00,,
0.196239750000000,0x80,,
0.196335250000000,0x07,,
0.196430666666667,0xFA,,
0.196526166666667,0x80,,
0.196621583333333,0x08,,
0.196717083333333,0x00,,
0.196812500000000,0x2A,,
0.196908000000000,0x28,,
0.197003416666667,0x00,,
0.197098916666667,0x88,,
0.197194333333333,0x82,,
0.197289833333333,0xAB,,
0.197385250000000,0xFF,,
0.197480666666667,0xFF,,
0.197576166666667,0xFF,,
0.197671666666667,0x4A,,
0.215357833333333,0x55,,
0.215453333333333,0x55,,
0.215548750000000,0x2B,,
0.215644250000000,0x03,,
0.215739666666667,0x2E,,
0.215835083333333,0x88,,
0.215930583333333,0xEB,,
0.216026083333333,0x00,,
0.216121500000000,0x80,,
0.216216916666667,0x08,,
0.216312416666667,0x00,,
0.216407833333333,0x80,,
0.216503333333333,0x07,,
0.216598750000000,0xFA,,
0.216694250000000,0x80,,
0.216789666666667,0x08,,
0.216885166666667,0x00,,
0.216980583333333,0x2A,,
0.217076083333333,0x28,,
0.217171500000000,0x00,,
0.217267000000000,0x88,,
0.217362416666667,0x82,,
0.217457916666667,0xAB,,
0.217553333333333,0xFF,,
0.217648833333333,0xFF,,
0.217744250000000,0xFF,,
0.217839750000000,0x00,,
0.217935166666667,0x00,,
0.218030583333333,0x00,,
0.218126083333333,0x00,,
0.218221500000000,0x00,,
0.218317000000000,0x00,,
0.218412416666667,0x00,,
0.218507916666667,0x00,,
0.218603333333333,0x00,,
0.218698833333333,0x00,,
0.218794250000000,0x00,,
0.218889750000000,0x00,,
0.218985166666667,0x00,,
0.219080666666667,0x00,,
0.219176083333333,0x00,,
0.219271583333333,0x00,,
0.219367000000000,0x00,,
0.219462500000000,0x00,,
0.219557916666667,0x00,,
0.219653416666667,0x69,,
0.235335000000000,0x55,,
0.235430500000000,0x55,,
0.235525916666667,0x18,,
0.235621333333333,0x00,,
0.235716833333333,0x2F,,
0.235812250000000,0x4F,,
0.235907750000000,0xEC,,
0.236003166666667,0x00,,
0.236098666666667,0x80,,
0.236194083333333,0x08,,
0.236289583333333,0x00,,
0.236385000000000,0x80,,
0.236480500000000,0x07,,
0.236575916666667,0xFA,,
0.236671416666667,0x80,,
0.236766833333333,0x08,,
0.236862250000000,0x00,,
0.236957750000000,0x2A,,
0.237053250000000,0x28,,
0.237148666666667,0x00,,
0.237244083333333,0x88,,
0.237339583333333,0x82,,
0.237435000000000,0xAB,,
0.237530500000000,0xFF,,
0.237625916666667,0xFF,,
0.237721416666667,0xFF,,
0.237816833333333,0xA7,,
0.255381583333333,0x55,,
0.255477000000000,0x55,,
0.255572416666667,0x18,,
0.255667916666667,0x00,,
0.255763416666667,0x30,,
0.255858833333333,0x14,,
0.255954250000000,0xEA,,
0.256049750000000,0x00,,
0.256145166666667,0x80,,
0.256240666666667,0x08,,
0.256336166666667,0x00,,
0.256431583333333,0x80,,
0.256527000000000,0x07,,
0.256622500000000,0xFA,,
0.256717916666667,0x80,,
0.256813416666667,0x08,,
0.256908833333333,0x00,,
0.257004333333333,0x2A,,
0.257099750000000,0x28,,
0.257195250000000,0x00,,
0.257290666666667,0x88,,
0.257386166666667,0x82,,
0.257481583333333,0xAB,,
0.257577083333333,0xFF,,
0.257672500000000,0xFF,,
0.257767916666667,0xFF,,
0.257863416666667,0xD9,,
0.276113750000000,0x55,,
0.276209166666667,0x55,,
0.276304583333333,0x2B,,
0.276400083333333,0x03,,
0.276495500000000,0x30,,
0.276591000000000,0xE1,,
0.276686416666667,0xEA,,
0.276781916666667,0x00,,
0.276877333333333,0x80,,
0.276972833333333,0x08,,
0.277068250000000,0x00,,
0.277163750000000,0x80,,
0.277259166666667,0x07,,
0.277354666666667,0xFA,,
0.277450083333333,0x80,,
0.277545583333333,0x08,,
0.277641000000000,0x00,,
0.277736500000000,0x2A,,
0.277831916666667,0x28,,
0.277927416666667,0x00,,
0.278022833333333,0x88,,
0.278118250000000,0x82,,
0.278213750000000,0xAB,,
0.278309166666667,0xFF,,
0.278404666666667,0xFF,,
0.278500083333333,0xFF,,
0.278595583333333,0x00,,
0.278691000000000,0x00,,
0.278786500000000,0x00,,
0.278881916666667,0x00,,
0.278977416666667,0x00,,
0.279072833333333,0x00,,
0.279168333333333,0x00,,
0.279263750000000,0x00,,
0.279359166666667,0x00,,
0.279454666666667,0x00,,
0.279550166666667,0x00,,
0.279645583333333,0x00,,
0.279741000000000,0x00,,
0.279836500000000,0x00,,
0.279931916666667,0x00,,
0.280027416666667,0x00,,
0.280122916666667,0x00,,
0.280218333333333,0x00,,
0.280313750000000,0x00,,
0.280409250000000,0xAB,,
0.296038750000000,0x55,,
0.296134250000000,0x55,,
0.296229750000000,0x18,,
0.296325166666667,0x00,,
0.296420583333333,0x31,,
0.296516083333333,0xA7,,
0.296611500000000,0xE6,,
0.296707000000000,0x00,,
0.296802416666667,0x80,,
0.296897916666667,0x08,,
0.296993333333333,0x00,,
0.297088750000000,0x80,,
0.297184250000000,0x07,,
0.297279750000000,0xFA,,
0.297375166666667,0x80,,
0.297470583333333,0x08,,
0.297566083333333,0x00,,
0.297661500000000,0x2A,,
0.297757000000000,0x28,,
0.297852416666667,0x00,,
0.297947916666667,0x88,,
0.298043333333333,0x82,,
0.298138833333333,0xAB,,
0.298234250000000,0xFF,,
0.298329750000000,0xFF,,
0.298425166666667,0xFF,,
0.298520666666667,0x92,,
0.316371750000000,0x55,,
0.316467250000000,0x55,,
0.316562666666667,0x18,,
0.316658166666667,0x00,,
0.316753583333333,0x32,,
0.316849000000000,0x70,,
0.316944500000000,0xE4,,
0.317040000000000,0x00,,
0.317135416666667,0x80,,
0.317230916666667,0x08,,
0.317326333333333,0x00,,
0.317421750000000,0x80,,
0.317517250000000,0x07,,
0.317612666666667,0xFA,,
0.317708166666667,0x80,,
0.317803583333333,0x08,,
0.317899083333333,0x00,,
0.317994500000000,0x2A,,
0.318090000000000,0x28,,
0.318185416666667,0x00,,
0.318280916666667,0x88,,
0.318376333333333,0x82,,
0.318471750000000,0xAB,,
0.318567250000000,0xFF,,
0.318662666666667,0xFF,,
0.318758166666667,0xFF,,
0.318853583333333,0xB4,,
0.336105916666667,0x55,,
0.336201333333333,0x55,,
0.336296833333333,0x2B,,
0.336392250000000,0x03,,
0.336487750000000,0x33,,
0.336583166666667,0x33,,
0.336678583333333,0xE4,,
0.336774083333333,0x00,,
0.336869500000000,0x80,,
0.336965000000000,0x08,,
0.337060416666667,0x00,,
0.337155916666667,0x80,,
0.337251333333333,0x07,,
0.337346833333333,0xFA,,
0.337442250000000,0x80,,
0.337537750000000,0x08,,
0.337633166666667,0x00,,
0.337728666666667,0x2A,,
0.337824083333333,0x28,,
0.337919583333333,0x00,,
0.338015000000000,0x88,,
0.338110500000000,0x82,,
0.338205916666667,0xAB,,
0.338301416666667,0xFF,,
0.338396833333333,0xFF,,
0.338492250000000,0xFF,,
0.338587750000000,0x00,,
0.338683250000000,0x00,,
0.338778666666667,0x00,,
0.338874083333333,0x00,,
0.338969583333333,0x00,,
0.339065000000000,0x00,,
0.339160500000000,0x00,,
0.339255916666667,0x00,,
0.339351416666667,0x00,,
0.339446833333333,0x00,,
0.339542333333333,0x00,,
0.339637750000000,0x00,,
0.339733250000000,0x00,,
0.339828666666667,0x00,,
0.339924166666667,0x00,,
0.340019583333333,0x00,,
0.340115000000000,0x00,,
0.340210500000000,0x00,,
0.340306000000000,0x00,,
0.340401416666667,0xDE,,
0.355987583333333,0x55,,
0.356083083333333,0x55,,
0.356178500000000,0x18,,
0.356274000000000,0x00,,
0.356369416666667,0x33,,
0.356464833333333,0xF8,,
0.356560333333333,0xE8,,
0.356655833333333,0x00,,
0.356751250000000,0x80,,
0.356846750000000,0x08,,
0.356942166666667,0x00,,
0.357037583333333,0x80,,
0.357133083333333,0x07,,
0.357228583333333,0xFA,,
0.357324000000000,0x80,,
0.357419416666667,0x08,,
0.357514916666667,0x00,,
0.357610333333333,0x2A,,
0.357705833333333,0x28,,
0.357801250000000,0x00,,
0.357896750000000,0x88,,
0.357992166666667,0x82,,
0.358087583333333,0xAB,,
0.358183083333333,0xFF,,
0.358278583333333,0xFF,,
0.358374000000000,0xFF,,
0.358469416666667,0x2A,,
0.375999416666667,0x55,,
0.376094916666667,0x55,,
0.376190333333333,0x18,,
0.376285833333333,0x00,,
0.376381333333333,0x34,,
0.376476750000000,0xBE,,
0.376572166666667,0xEB,,
0.376667666666667,0x00,,
0.376763083333333,0x80,,
0.376858583333333,0x08,,
0.376954000000000,0x00,,
0.377049500000000,0x80,,
0.377144916666667,0x07,,
0.377240416666667,0xFA,,
0.377335833333333,0x80,,
0.377431333333333,0x08,,
0.377526750000000,0x00,,
0.377622250000000,0x2A,,
0.377717666666667,0x28,,
0.377813083333333,0x00,,
0.377908583333333,0x88,,
0.378004000000000,0x82,,
0.378099500000000,0xAB,,
0.378194916666667,0xFF,,
0.378290416666667,0xFF,,
0.378385833333333,0xFF,,
0.378481333333333,0xE6,,
0.396150166666667,0x55,,
0.396245666666667,0x55,,
0.396341083333333,0x2B,,
0.396436583333333,0x03,,
0.396532000000000,0x35,,
0.396627416666667,0x83,,
0.396722916666667,0xEB,,
0.396818333333333,0x00,,
0.396913833333333,0x80,,
0.397009250000000,0x08,,
0.397104750000000,0x00,,
0.397200166666667,0x80,,
0.397295666666667,0x07,,
0.397391083333333,0xFA,,
0.397486583333333,0x80,,
0.397582000000000,0x08,,
0.397677416666667,0x00,,
0.397772916666667,0x2A,,
0.397868416666667,0x28,,
0.397963833333333,0x00,,
0.398059333333333,0x88,,
0.398154750000000,0x82,,
0.398250166666667,0xAB,,
0.398345666666667,0xFF,,
0.398441083333333,0xFF,,
0.398536583333333,0xFF,,
0.398632000000000,0x00,,
0.398727500000000,0x00,,
0.398822916666667,0x00,,
0.398918416666667,0x00,,
0.399013833333333,0x00,,
0.399109333333333,0x00,,
0.399204750000000,0x00,,
0.399300250000000,0x00,,
0.399395666666667,0x00,,
0.399491166666667,0x00,,
0.399586583333333,0x00,,
0.399682083333333,0x00,,
0.399777500000000,0x00,,
0.399872916666667,0x00,,
0.399968416666667,0x00,,
0.400063833333333,0x00,,
0.400159333333333,0x00,,
0.400254750000000,0x00,,
0.400350250000000,0x00,,
0.400445666666667,0xE6,,
0.416292250000000,0x55,,
0.416387666666667,0x55,,
0.416483083333333,0x18,,
0.416578583333333,0x00,,
0.416674083333333,0x36,,
0.416769500000000,0x4C,,
0.416865000000000,0xE3,,
0.416960416666667,0x00,,
0.417055833333333,0x80,,
0.417151333333333,0x08,,
0.417246750000000,0x00,,
0.417342250000000,0x80,,
0.417437666666667,0x07,,
0.417533166666667,0xFA,,
0.417628583333333,0x80,,
0.417724083333333,0x08,,
0.417819500000000,0x00,,
0.417915000000000,0x2A,,
0.418010416666667,0x28,,
0.418105916666667,0x00,,
0.418201333333333,0x88,,
0.418296750000000,0x82,,
0.418392250000000,0xAB,,
0.418487750000000,0xFF,,
0.418583166666667,0xFF,,
0.418678583333333,0xFF,,
0.418774083333333,0xB8,,
0.436720666666667,0x55,,
0.436816083333333,0x55,,
0.436911583333333,0x18,,
0.437007000000000,0x00,,
0.437102416666667,0x37,,
0.437197916666667,0x16,,
0.437293416666667,0xEA,,
0.437388833333333,0x00,,
0.437484250000000,0x80,,
0.437579750000000,0x08,,
0.437675166666667,0x00,,
0.437770666666667,0x80,,
0.437866083333333,0x07,,
0.437961583333333,0xFA,,
0.438057000000000,0x80,,
0.438152500000000,0x08,,
0.438247916666667,0x00,,
0.438343416666667,0x2A,,
0.438438833333333,0x28,,
0.438534333333333,0x00,,
0.438629750000000,0x88,,
0.438725250000000,0x82,,
0.438820666666667,0xAB,,
0.438916166666667,0xFF,,
0.439011583333333,0xFF,,
0.439107083333333,0xFF,,
0.439202500000000,0xEF,,
0.456436666666667,0x55,,
0.456532083333333,0x55,,
0.456627583333333,0x2B,,
0.456723083333333,0x03,,
0.456818500000000,0x37,,
0.456913916666667,0xD7,,
0.457009416666667,0xE8,,
0.457104833333333,0x00,,
0.457200333333333,0x80,,
0.457295750000000,0x08,,
0.457391250000000,0x00,,
0.457486666666667,0x80,,
0.457582083333333,0x07,,
0.457677583333333,0xFA,,
0.457773083333333,0x80,,
0.457868500000000,0x08,,
0.457963916666667,0x00,,
0.458059416666667,0x2A,,
0.458154833333333,0x28,,
0.458250333333333,0x00,,
0.458345833333333,0x88,,
0.458441250000000,0x82,,
0.458536666666667,0xAB,,
0.458632166666667,0xFF,,
0.458727583333333,0xFF,,
0.458823083333333,0xFF,,
0.458918500000000,0x00,,
0.459014000000000,0x00,,
0.459109416666667,0x00,,
0.459204916666667,0x00,,
0.459300333333333,0x00,,
0.459395833333333,0x00,,
0.459491250000000,0x00,,
0.459586750000000,0x00,,
0.459682166666667,0x00,,
0.459777583333333,0x00,,
0.459873083333333,0x00,,
0.459968583333333,0x00,,
0.460064000000000,0x00,,
0.460159416666667,0x00,,
0.460254916666667,0x00,,
0.460350333333333,0x00,,
0.460445833333333,0x00,,
0.460541250000000,0x00,,
0.460636750000000,0x00,,
0.460732166666667,0x2A,,
0.476431916666667,0x55,,
0.476527416666667,0x55,,
0.476622833333333,0x18,,
0.476718250000000,0x00,,
0.476813750000000,0x38,,
0.476909166666667,0x9E,,
0.477004666666667,0xEC,,
0.477100083333333,0x00,,
0.477195583333333,0x80,,
0.477291000000000,0x08,,
0.477386416666667,0x00,,
0.477481916666667,0x80,,
0.477577416666667,0x07,,
0.477672833333333,0xFA,,
0.477768333333333,0x80,,
0.477863750000000,0x08,,
0.477959166666667,0x00,,
0.478054666666667,0x2A,,
0.478150166666667,0x28,,
0.478245583333333,0x00,,
0.478341083333333,0x88,,
0.478436500000000,0x82,,
0.478531916666667,0xAB,,
0.478627416666667,0xFF,,
0.478722833333333,0xFF,,
