Time [s],Value,Parity Error,Framing Error
0.016632666666667,0x55,,
0.016719416666667,0x55,,
0.016806250000000,0x26,,
0.016893000000000,0x02,,
0.016979833333333,0xDC,,
0.017066583333333,0x18,,
0.017153333333333,0x00,,
0.017240166666667,0x00,,
0.017326916666667,0x00,,
0.017413750000000,0x00,,
0.017500500000000,0x00,,
0.017587250000000,0x00,,
0.017674083333333,0x00,,
0.017760833333333,0x00,,
0.017847583333333,0xF6,,
0.017934416666667,0x00,,
0.018021166666667,0x00,,
0.018108000000000,0x00,,
0.018194750000000,0x00,,
0.018281500000000,0x00,,
0.018368333333333,0x00,,
0.018455083333333,0x00,,
0.018541916666667,0x00,,
0.018628666666667,0x00,,
0.018715416666667,0x00,,
0.018802250000000,0x60,,
0.018889000000000,0x00,,
0.018975750000000,0xD4,,
0.019062583333333,0xFF,,
0.019149333333333,0x51,,
0.019236166666667,0x00,,
0.019322916666667,0x54,,
0.019409666666667,0x1B,,
0.019496500000000,0xFF,,
0.019583250000000,0x61,,
0.019670083333333,0x55,,
0.019756833333333,0x10,,
0.019843583333333,0x05,,
0.019930416666667,0x00,,
0.020017166666667,0x58,,
0.020103916666667,0x84,,
0.035993666666667,0x55,,
0.036080500000000,0x55,,
0.036167250000000,0x26,,
0.036254000000000,0x02,,
0.036340833333333,0xDD,,
0.036427583333333,0x18,,
0.036514416666667,0x00,,
0.036601166666667,0x00,,
0.036687916666667,0x00,,
0.036774750000000,0x00,,
0.036861500000000,0x00,,
0.036948250000000,0x00,,
0.037035083333333,0x00,,
0.037121833333333,0x00,,
0.037208583333333,0xF5,,
0.037295416666667,0x00,,
0.037382166666667,0x00,,
0.037469000000000,0x00,,
0.037555750000000,0x00,,
0.037642500000000,0x00,,
0.037729333333333,0x00,,
0.037816083333333,0x00,,
0.037902916666667,0x00,,
0.037989666666667,0x00,,
0.038076416666667,0x00,,
0.038163250000000,0x60,,
0.038250000000000,0x00,,
0.038336750000000,0xD4,,
0.038423583333333,0xFF,,
0.038510333333333,0x51,,
0.038597166666667,0x00,,
0.038683916666667,0x54,,
0.038770666666667,0x1B,,
0.038857500000000,0xFF,,
0.038944250000000,0x61,,
0.039031083333333,0x55,,
0.039117833333333,0x10,,
0.039204583333333,0x05,,
0.039291416666667,0x00,,
0.039378166666667,0x58,,
0.039464916666667,0xAB,,
0.055996833333333,0x55,,
0.056083666666667,0x55,,
0.056170416666667,0x26,,
0.056257250000000,0x02,,
0.056344000000000,0xDE,,
0.056430750000000,0x18,,
0.056517583333333,0x00,,
0.056604333333333,0x00,,
0.056691083333333,0x00,,
0.056777916666667,0x00,,
0.056864666666667,0x00,,
0.056951500000000,0x00,,
0.057038250000000,0x00,,
0.057125000000000,0x00,,
0.057211833333333,0xF5,,
0.057298583333333,0x00,,
0.057385416666667,0x00,,
0.057472166666667,0x00,,
0.057558916666667,0x00,,
0.057645750000000,0x00,,
0.057732500000000,0x00,,
0.057819250000000,0x00,,
0.057906083333333,0x00,,
0.057992833333333,0x00,,
0.058079666666667,0x00,,
0.058166416666667,0x60,,
0.058253166666667,0x00,,
0.058340000000000,0xD4,,
0.058426750000000,0xFF,,
0.058513583333333,0x51,,
0.058600333333333,0x00,,
0.058687083333333,0x54,,
0.058773916666667,0x1B,,
0.058860666666667,0xFF,,
0.058947416666667,0x61,,
0.059034250000000,0x55,,
0.059121000000000,0x10,,
0.059207833333333,0x05,,
0.059294583333333,0x00,,
0.059381333333333,0x58,,
0.059468166666667,0x43,,
0.075739750000000,0x55,,
0.075826500000000,0x55,,
0.075913250000000,0x26,,
0.076000083333333,0x02,,
0.076086833333333,0xDF,,
0.076173583333333,0x18,,
0.076260416666667,0x00,,
0.076347166666667,0x00,,
0.076434000000000,0x00,,
0.076520750000000,0x00,,
0.076607500000000,0x00,,
0.076694333333333,0x00,,
0.076781083333333,0x00,,
0.076867916666667,0x00,,
0.076954666666667,0xF6,,
0.077041416666667,0x00,,
0.077128250000000,0x00,,
0.077215000000000,0x00,,
0.077301750000000,0x00,,
0.077388583333333,0x00,,
0.077475333333333,0x00,,
0.077562166666667,0x00,,
0.077648916666667,0x00,,
0.077735666666667,0x00,,
0.077822500000000,0x00,,
0.077909250000000,0x60,,
0.077996083333333,0x00,,
0.078082833333333,0xD4,,
0.078169583333333,0xFF,,
0.078256416666667,0x50,,
0.078343166666667,0x00,,
0.078429916666667,0x54,,
0.078516750000000,0x1B,,
0.078603500000000,0xFF,,
0.078690250000000,0x61,,
0.078777083333333,0x55,,
0.078863833333333,0x10,,
0.078950666666667,0x05,,
0.079037416666667,0x00,,
0.079124166666667,0x58,,
0.079211000000000,0x73,,
0.095734250000000,0x55,,
0.095821000000000,0x55,,
0.095907750000000,0x26,,
0.095994583333333,0x02,,
0.096081333333333,0xE0,,
0.096168166666667,0x18,,
0.096254916666667,0x00,,
0.096341666666667,0x00,,
0.096428500000000,0x00,,
0.096515250000000,0x00,,
0.096602083333333,0x00,,
0.096688833333333,0x00,,
0.096775583333333,0x00,,
0.096862416666667,0x00,,
0.096949166666667,0xF6,,
0.097035916666667,0x00,,
0.097122750000000,0x00,,
0.097209500000000,0x00,,
0.097296250000000,0x00,,
0.097383083333333,0x00,,
0.097469833333333,0x00,,
0.097556666666667,0x00,,
0.097643416666667,0x00,,
0.097730166666667,0x00,,
0.097817000000000,0x00,,
0.097903750000000,0x60,,
0.097990583333333,0x00,,
0.098077333333333,0xD4,,
0.098164083333333,0xFF,,
0.098250916666667,0x50,,
0.098337666666667,0x00,,
0.098424416666667,0x54,,
0.098511250000000,0x1B,,
0.098598000000000,0xFF,,
0.098684833333333,0x61,,
0.098771583333333,0x55,,
0.098858333333333,0x10,,
0.098945166666667,0x05,,
0.099031916666667,0x00,,
0.099118750000000,0x58,,
0.099205500000000,0x98,,
0.116553166666667,0x55,,
0.116639916666667,0x55,,
0.116726750000000,0x26,,
0.116813500000000,0x02,,
0.116900250000000,0xE1,,
0.116987083333333,0x18,,
0.117073833333333,0x00,,
0.117160666666667,0x00,,
0.117247416666667,0x00,,
0.117334166666667,0x00,,
0.117421000000000,0x00,,
0.117507750000000,0x00,,
0.117594583333333,0x00,,
0.117681333333333,0x00,,
0.117768083333333,0xF6,,
0.117854916666667,0x00,,
0.117941666666667,0x00,,
0.118028416666667,0x00,,
0.118115250000000,0x00,,
0.118202000000000,0x00,,
0.118288750000000,0x00,,
0.118375583333333,0x00,,
0.118462333333333,0x00,,
0.118549166666667,0x00,,
0.118635916666667,0x00,,
0.118722666666667,0x60,,
0.118809500000000,0x00,,
0.118896250000000,0xD4,,
0.118983083333333,0xFF,,
0.119069833333333,0x50,,
0.119156583333333,0x00,,
0.119243416666667,0x53,,
0.119330166666667,0x1B,,
0.119416916666667,0xFF,,
0.119503750000000,0x61,,
0.119590500000000,0x55,,
0.119677333333333,0x10,,
0.119764083333333,0x05,,
0.119850833333333,0x00,,
0.119937666666667,0x58,,
0.120024416666667,0xA8,,
0.120111250000000,0x55,,
0.120198000000000,0x55,,
0.120284750000000,0x09,,
0.120371583333333,0x14,,
0.120458333333333,0x08,,
0.120545083333333,0x00,,
0.120631916666667,0x00,,
0.120718666666667,0x00,,
0.120805500000000,0x00,,
0.120892250000000,0x00,,
0.120979000000000,0x00,,
0.121065833333333,0x29,,
0.135731916666667,0x55,,
0.135818666666667,0x55,,
0.135905500000000,0x26,,
0.135992250000000,0x02,,
0.136079083333333,0xE2,,
0.136165833333333,0x18,,
0.136252583333333,0x00,,
0.136339416666667,0x00,,
0.136426166666667,0x00,,
0.136512916666667,0x00,,
0.136599750000000,0x00,,
0.136686500000000,0x00,,
0.136773333333333,0x00,,
0.136860083333333,0x00,,
0.136946833333333,0xF6,,
0.137033666666667,0x00,,
0.137120416666667,0x00,,
0.137207250000000,0x00,,
0.137294000000000,0x00,,
0.137380750000000,0x00,,
0.137467583333333,0x00,,
0.137554333333333,0x00,,
0.137641083333333,0x00,,
0.137727916666667,0x00,,
0.137814666666667,0x00,,
0.137901500000000,0x60,,
0.137988250000000,0x00,,
0.138075000000000,0xD4,,
0.138161833333333,0xFF,,
0.138248583333333,0x50,,
0.138335416666667,0x00,,
0.138422166666667,0x53,,
0.138508916666667,0x1B,,
0.138595750000000,0xFF,,
0.138682500000000,0x61,,
0.138769250000000,0x55,,
0.138856083333333,0x10,,
0.138942833333333,0x05,,
0.139029583333333,0x00,,
0.139116416666667,0x58,,
0.139203166666667,0x40,,
0.155960750000000,0x55,,
0.156047500000000,0x55,,
0.156134333333333,0x26,,
0.156221083333333,0x02,,
0.156307833333333,0xE3,,
0.156394666666667,0x18,,
0.156481416666667,0x00,,
0.156568250000000,0x00,,
0.156655000000000,0x00,,
0.156741750000000,0x00,,
0.156828583333333,0x00,,
0.156915333333333,0x00,,
0.157002083333333,0x00,,
0.157088916666667,0x00,,
0.157175666666667,0xF6,,
0.157262500000000,0x00,,
0.157349250000000,0x00,,
0.157436000000000,0x00,,
0.157522833333333,0x00,,
0.157609583333333,0x00,,
0.157696416666667,0x00,,
0.157783166666667,0x00,,
0.157869916666667,0x00,,
0.157956750000000,0x00,,
0.158043500000000,0x00,,
0.158130250000000,0x60,,
0.158217083333333,0x00,,
0.158303833333333,0xD4,,
0.158390666666667,0xFF,,
0.158477416666667,0x50,,
0.158564166666667,0x00,,
0.158651000000000,0x53,,
0.158737750000000,0x1B,,
0.158824500000000,0xFF,,
0.158911333333333,0x61,,
0.158998083333333,0x55,,
0.159084916666667,0x10,,
0.159171666666667,0x05,,
0.159258416666667,0x00,,
0.159345250000000,0x58,,
0.159432000000000,0x18,,
0.175694916666667,0x55,,
0.175781666666667,0x55,,
0.175868500000000,0x26,,
0.175955250000000,0x02,,
0.176042000000000,0xE4,,
0.176128833333333,0x18,,
0.176215583333333,0x00,,
0.176302416666667,0x00,,
0.176389166666667,0x00,,
0.176475916666667,0x00,,
0.176562750000000,0x00,,
0.176649500000000,0x00,,
0.176736250000000,0x00,,
0.176823083333333,0x00,,
0.176909833333333,0xF7,,
0.176996666666667,0x00,,
0.177083416666667,0x00,,
0.177170166666667,0x00,,
0.177257000000000,0x00,,
0.177343750000000,0x00,,
0.177430583333333,0x00,,
0.177517333333333,0x00,,
0.177604083333333,0x00,,
0.177690916666667,0x00,,
0.177777666666667,0x00,,
0.177864416666667,0x60,,
0.177951250000000,0x00,,
0.178038000000000,0xD4,,
0.178124750000000,0xFF,,
0.178211583333333,0x50,,
0.178298333333333,0x00,,
0.178385166666667,0x53,,
0.178471916666667,0x1B,,
0.178558666666667,0xFF,,
0.178645500000000,0x61,,
0.178732250000000,0x55,,
0.178819083333333,0x10,,
0.178905833333333,0x05,,
0.178992583333333,0x00,,
0.179079416666667,0x58,,
0.179166166666667,0x47,,
0.195698083333333,0x55,,
0.195784916666667,0x55,,
0.195871666666667,0x26,,
0.195958416666667,0x02,,
0.196045250000000,0xE5,,
0.196132000000000,0x18,,
0.196218750000000,0x00,,
0.196305583333333,0x00,,
0.196392333333333,0x00,,
0.196479083333333,0x00,,
0.196565916666667,0x00,,
0.196652666666667,0x00,,
0.196739500000000,0x00,,
0.196826250000000,0x00,,
0.196913000000000,0xF7,,
0.196999833333333,0x00,,
0.197086583333333,0x00,,
0.197173416666667,0x00,,
0.197260166666667,0x00,,
0.197346916666667,0x00,,
0.197433750000000,0x00,,
0.197520500000000,0x00,,
0.197607250000000,0x00,,
0.197694083333333,0x00,,
0.197780833333333,0x00,,
0.197867666666667,0x60,,
0.197954416666667,0x00,,
0.198041166666667,0xD4,,
0.198128000000000,0xFF,,
0.198214750000000,0x50,,
0.198301583333333,0x00,,
0.198388333333333,0x53,,
0.198475083333333,0x1B,,
0.198561916666667,0xFF,,
0.198648666666667,0x61,,
0.198735416666667,0x55,,
0.198822250000000,0x10,,
0.198909000000000,0x05,,
0.198995833333333,0x00,,
0.199082583333333,0x58,,
0.199169333333333,0x1F,,
0.216543083333333,0x55,,
0.216629833333333,0x55,,
0.216716583333333,0x26,,
0.216803416666667,0x02,,
0.216890166666667,0xE6,,
0.216977000000000,0x18,,
0.217063750000000,0x00,,
0.217150500000000,0x00,,
0.217237333333333,0x00,,
0.217324083333333,0x00,,
0.217410916666667,0x00,,
0.217497666666667,0x00,,
0.217584416666667,0x00,,
0.217671250000000,0x00,,
0.217758000000000,0xF7,,
0.217844750000000,0x00,,
0.217931583333333,0x00,,
0.218018333333333,0x00,,
0.218105166666667,0x00,,
0.218191916666667,0x00,,
0.218278666666667,0x00,,
0.218365500000000,0x00,,
0.218452250000000,0x00,,
0.218539083333333,0x00,,
0.218625833333333,0x00,,
0.218712583333333,0x60,,
0.218799416666667,0x00,,
0.218886166666667,0xD4,,
0.218972916666667,0xFF,,
0.219059750000000,0x50,,
0.219146500000000,0x00,,
0.219233250000000,0x53,,
0.219320083333333,0x1B,,
0.219406833333333,0xFF,,
0.219493666666667,0x61,,
0.219580416666667,0x55,,
0.219667166666667,0x10,,
0.219754000000000,0x05,,
0.219840750000000,0x00,,
0.219927583333333,0x58,,
0.220014333333333,0xF7,,
0.235739166666667,0x55,,
0.235826000000000,0x55,,
0.235912750000000,0x26,,
0.235999500000000,0x02,,
0.236086333333333,0xE7,,
0.236173083333333,0x18,,
0.236259916666667,0x00,,
0.236346666666667,0x00,,
0.236433416666667,0x00,,
0.236520250000000,0x00,,
0.236607000000000,0x00,,
0.236693750000000,0x00,,
0.236780583333333,0x00,,
0.236867333333333,0x00,,
0.236954083333333,0xF8,,
0.237040916666667,0x00,,
0.237127666666667,0x00,,
0.237214500000000,0x00,,
0.237301250000000,0x00,,
0.237388000000000,0x00,,
0.237474833333333,0x00,,
0.237561583333333,0x00,,
0.237648416666667,0x00,,
0.237735166666667,0x00,,
0.237821916666667,0x00,,
0.237908750000000,0x60,,
0.237995500000000,0x00,,
0.238082250000000,0xD4,,
0.238169083333333,0xFF,,
0.238255833333333,0x50,,
0.238342666666667,0x00,,
0.238429416666667,0x53,,
0.238516166666667,0x1B,,
0.238603000000000,0xFF,,
0.238689750000000,0x61,,
0.238776583333333,0x55,,
0.238863333333333,0x10,,
0.238950083333333,0x05,,
0.239036916666667,0x00,,
0.239123666666667,0x58,,
0.239210416666667,0x03,,
0.255716333333333,0x55,,
0.255803083333333,0x55,,
0.255889916666667,0x26,,
0.255976666666667,0x02,,
0.256063416666667,0xE8,,
0.256150250000000,0x18,,
0.256237000000000,0x00,,
0.256323833333333,0x00,,
0.256410583333333,0x00,,
0.256497333333333,0x00,,
0.256584166666667,0x00,,
0.256670916666667,0x00,,
0.256757750000000,0x00,,
0.256844500000000,0x00,,
0.256931250000000,0xF8,,
0.257018083333333,0x00,,
0.257104833333333,0x00,,
0.257191583333333,0x00,,
0.257278416666667,0x00,,
0.257365166666667,0x00,,
0.257452000000000,0x00,,
0.257538750000000,0x00,,
0.257625500000000,0x00,,
0.257712333333333,0x00,,
0.257799083333333,0x00,,
0.257885916666667,0x60,,
0.257972666666667,0x00,,
0.258059416666667,0xD4,,
0.258146250000000,0xFF,,
0.258233000000000,0x50,,
0.258319750000000,0x00,,
0.258406583333333,0x53,,
0.258493333333333,0x1B,,
0.258580166666667,0xFF,,
0.258666916666667,0x61,,
0.258753666666667,0x55,,
0.258840500000000,0x10,,
0.258927250000000,0x05,,
0.259014000000000,0x00,,
0.259100833333333,0x58,,
0.259187583333333,0x42,,
0.259274416666667,0x55,,
0.259361166666667,0x55,,
0.259447916666667,0x0A,,
0.259534750000000,0x14,,
0.259621500000000,0x03,,
0.259708250000000,0xFF,,
0.259795083333333,0x01,,
0.259881833333333,0x00,,
0.259968666666667,0x00,,
0.260055416666667,0x13,,
0.260142166666667,0x00,,
0.260229000000000,0x03,,
0.260315750000000,0xB1,,
0.275693500000000,0x55,,
0.275780250000000,0x55,,
0.275867083333333,0x26,,
0.275953833333333,0x02,,
0.276040583333333,0xE9,,
0.276127416666667,0x18,,
0.276214166666667,0x00,,
0.276300916666667,0x00,,
0.276387750000000,0x00,,
0.276474500000000,0x00,,
0.276561333333333,0x00,,
0.276648083333333,0x00,,
0.276734833333333,0x00,,
0.276821666666667,0x00,,
0.276908416666667,0xF8,,
0.276995250000000,0x00,,
0.277082000000000,0x00,,
0.277168750000000,0x00,,
0.277255583333333,0x00,,
0.277342333333333,0x00,,
0.277429083333333,0x00,,
0.277515916666667,0x00,,
0.277602666666667,0x00,,
0.277689500000000,0x00,,
0.277776250000000,0x00,,
0.277863000000000,0x60,,
0.277949833333333,0x00,,
0.278036583333333,0xD4,,
0.278123416666667,0xFF,,
0.278210166666667,0x50,,
0.278296916666667,0x00,,
0.278383750000000,0x52,,
0.278470500000000,0x1B,,
0.278557250000000,0xFF,,
0.278644083333333,0x61,,
0.278730833333333,0x55,,
0.278817583333333,0x10,,
0.278904416666667,0x05,,
0.278991166666667,0x00,,
0.279078000000000,0x58,,
0.279164750000000,0x63,,
0.295705333333333,0x55,,
0.295792166666667,0x55,,
0.295878916666667,0x26,,
0.295965666666667,0x02,,
0.296052500000000,0xEA,,
0.296139250000000,0x18,,
0.296226083333333,0x00,,
0.296312833333333,0x00,,
0.296399583333333,0x00,,
0.296486416666667,0x00,,
0.296573166666667,0x00,,
0.296659916666667,0x00,,
0.296746750000000,0x00,,
0.296833500000000,0x00,,
0.296920333333333,0xF8,,
0.297007083333333,0x00,,
0.297093833333333,0x00,,
0.297180666666667,0x00,,
0.297267416666667,0x00,,
0.297354166666667,0x00,,
0.297441000000000,0x00,,
0.297527750000000,0x00,,
0.297614583333333,0x00,,
0.297701333333333,0x00,,
0.297788083333333,0x00,,
0.297874916666667,0x60,,
0.297961666666667,0x00,,
0.298048416666667,0xD4,,
0.298135250000000,0xFF,,
0.298222000000000,0x50,,
0.298308833333333,0x00,,
0.298395583333333,0x52,,
0.298482333333333,0x1B,,
0.298569166666667,0xFF,,
0.298655916666667,0x61,,
0.298742750000000,0x55,,
0.298829500000000,0x10,,
0.298916250000000,0x05,,
0.299003083333333,0x00,,
0.299089833333333,0x58,,
0.299176583333333,0x8B,,
0.316498250000000,0x55,,
0.316585000000000,0x55,,
0.316671833333333,0x26,,
0.316758583333333,0x02,,
0.316845416666667,0xEB,,
0.316932166666667,0x18,,
0.317018916666667,0x00,,
0.317105750000000,0x00,,
0.317192500000000,0x00,,
0.317279250000000,0x00,,
0.317366083333333,0x00,,
0.317452833333333,0x00,,
0.317539666666667,0x00,,
0.317626416666667,0x00,,
0.317713166666667,0xF8,,
0.317800000000000,0x00,,
0.317886750000000,0x00,,
0.317973583333333,0x00,,
0.318060333333333,0x00,,
0.318147083333333,0x00,,
0.318233916666667,0x00,,
0.318320666666667,0x00,,
0.318407416666667,0x00,,
0.318494250000000,0x00,,
0.318581000000000,0x00,,
0.318667833333333,0x60,,
0.318754583333333,0x00,,
0.318841333333333,0xD4,,
0.318928166666667,0xFF,,
0.319014916666667,0x50,,
0.319101666666667,0x00,,
0.319188500000000,0x52,,
0.319275250000000,0x1B,,
0.319362083333333,0xFF,,
0.319448833333333,0x61,,
0.319535583333333,0x55,,
0.319622416666667,0x10,,
0.319709166666667,0x05,,
0.319795916666667,0x00,,
0.319882750000000,0x58,,
0.319969500000000,0xD3,,
0.335920000000000,0x55,,
0.336006750000000,0x55,,
0.336093583333333,0x26,,
0.336180333333333,0x02,,
0.336267166666667,0xEC,,
0.336353916666667,0x18,,
0.336440666666667,0x00,,
0.336527500000000,0x00,,
0.336614250000000,0x00,,
0.336701083333333,0x00,,
0.336787833333333,0x00,,
0.336874583333333,0x00,,
0.336961416666667,0x00,,
0.337048166666667,0x00,,
0.337134916666667,0xF9,,
0.337221750000000,0x00,,
0.337308500000000,0x00,,
0.337395250000000,0x00,,
0.337482083333333,0x00,,
0.337568833333333,0x00,,
0.337655666666667,0x00,,
0.337742416666667,0x00,,
0.337829166666667,0x00,,
0.337916000000000,0x00,,
0.338002750000000,0x00,,
0.338089583333333,0x60,,
0.338176333333333,0x00,,
0.338263083333333,0xD4,,
0.338349916666667,0xFF,,
0.338436666666667,0x50,,
0.338523416666667,0x00,,
0.338610250000000,0x52,,
0.338697000000000,0x1B,,
0.338783833333333,0xFF,,
0.338870583333333,0x61,,
0.338957333333333,0x55,,
0.339044166666667,0x10,,
0.339130916666667,0x05,,
0.339217750000000,0x00,,
0.339304500000000,0x58,,
0.339391250000000,0x8C,,
0.355897166666667,0x55,,
0.355983916666667,0x55,,
0.356070750000000,0x26,,
0.356157500000000,0x02,,
0.356244250000000,0xED,,
0.356331083333333,0x18,,
0.356417833333333,0x00,,
0.356504583333333,0x00,,
0.356591416666667,0x00,,
0.356678166666667,0x00,,
0.356765000000000,0x00,,
0.356851750000000,0x00,,
0.356938500000000,0x00,,
0.357025333333333,0x00,,
0.357112083333333,0xF9,,
0.357198916666667,0x00,,
0.357285666666667,0x00,,
0.357372416666667,0x00,,
0.357459250000000,0x00,,
0.357546000000000,0x00,,
0.357632750000000,0x00,,
0.357719583333333,0x00,,
0.357806333333333,0x00,,
0.357893166666667,0x00,,
0.357979916666667,0x00,,
0.358066666666667,0x60,,
0.358153500000000,0x00,,
0.358240250000000,0xD4,,
0.358327083333333,0xFF,,
0.358413833333333,0x50,,
0.358500583333333,0x00,,
0.358587416666667,0x52,,
0.358674166666667,0x1B,,
0.358760916666667,0xFF,,
0.358847750000000,0x61,,
0.358934500000000,0x55,,
0.359021333333333,0x10,,
0.359108083333333,0x05,,
0.359194833333333,0x00,,
0.359281666666667,0x58,,
0.359368416666667,0xD4,,
0.375726750000000,0x55,,
0.375813583333333,0x55,,
0.375900333333333,0x26,,
0.375987083333333,0x02,,
0.376073916666667,0xEE,,
0.376160666666667,0x18,,
0.376247500000000,0x00,,
0.376334250000000,0x00,,
0.376421000000000,0x00,,
0.376507833333333,0x00,,
0.376594583333333,0x00,,
0.376681416666667,0x00,,
0.376768166666667,0x00,,
0.376854916666667,0x00,,
0.376941750000000,0xF9,,
0.377028500000000,0x00,,
0.377115250000000,0x00,,
0.377202083333333,0x00,,
0.377288833333333,0x00,,
0.377375666666667,0x00,,
0.377462416666667,0x00,,
0.377549166666667,0x00,,
0.377636000000000,0x00,,
0.377722750000000,0x00,,
0.377809583333333,0x00,,
0.377896333333333,0x60,,
0.377983083333333,0x00,,
0.378069916666667,0xD4,,
0.378156666666667,0xFF,,
0.378243416666667,0x4F,,
0.378330250000000,0x00,,
0.378417000000000,0x52,,
0.378503833333333,0x1B,,
0.378590583333333,0xFF,,
0.378677333333333,0x61,,
