Time [s],Value,Parity Error,Framing Error
0.031091000000000,0xFE,,
0.031178000000000,0x21,,
0.031265000000000,0x01,,
0.031351000000000,0x0A,,
0.031438000000000,0x00,,
0.031525000000000,0x02,,
0.031611000000000,0x00,,
0.031698000000000,0x02,,
0.031785000000000,0x05,,
0.031871000000000,0x00,,
0.031958000000000,0x00,,
0.032045000000000,0x64,,
0.032131000000000,0x64,,
0.032218000000000,0x64,,
0.032305000000000,0x64,,
0.032391000000000,0x64,,
0.032478000000000,0x64,,
0.032565000000000,0x00,,
0.032652000000000,0x00,,
0.032738000000000,0x00,,
0.032825000000000,0x00,,
0.032912000000000,0x00,,
0.032998000000000,0x00,,
0.033085000000000,0x00,,
0.033172000000000,0x00,,
0.033258000000000,0x00,,
0.033345000000000,0x00,,
0.033432000000000,0x00,,
0.033518000000000,0x00,,
0.033605000000000,0x00,,
0.033692000000000,0x00,,
0.033778000000000,0x00,,
0.033865000000000,0x00,,
0.033952000000000,0x00,,
0.034038000000000,0x00,,
0.034125000000000,0x00,,
0.034212000000000,0x00,,
0.034298000000000,0x00,,
0.034385000000000,0x00,,
0.034472000000000,0x00,,
0.034559000000000,0x00,,
0.034645000000000,0xB6,,
0.034732000000000,0xE1,,
0.138988000000000,0xFE,,
0.139074000000000,0x21,,
0.139161000000000,0x01,,
0.139248000000000,0x0A,,
0.139334000000000,0x00,,
0.139421000000000,0x02,,
0.139508000000000,0x00,,
0.139594000000000,0x02,,
0.139681000000000,0x01,,
0.139768000000000,0x00,,
0.139854000000000,0x00,,
0.139941000000000,0x00,,
0.140028000000000,0x00,,
0.140114000000000,0x00,,
0.140201000000000,0x00,,
0.140288000000000,0x00,,
0.140375000000000,0x00,,
0.140461000000000,0x00,,
0.140548000000000,0x00,,
0.140635000000000,0x00,,
0.140721000000000,0x00,,
0.140808000000000,0x00,,
0.140895000000000,0x00,,
0.140981000000000,0x00,,
0.141068000000000,0x00,,
0.141155000000000,0x00,,
0.141241000000000,0x00,,
0.141328000000000,0x00,,
0.141415000000000,0x00,,
0.141501000000000,0x00,,
0.141588000000000,0x00,,
0.141675000000000,0x00,,
0.141761000000000,0x00,,
0.141848000000000,0x00,,
0.141935000000000,0x00,,
0.142022000000000,0x00,,
0.142108000000000,0x00,,
0.142195000000000,0x00,,
0.142282000000000,0x00,,
0.142368000000000,0x00,,
0.142455000000000,0x00,,
0.142542000000000,0xB8,,
0.142628000000000,0x82,,
0.247874000000000,0xFE,,
0.247960000000000,0x21,,
0.248047000000000,0x01,,
0.248134000000000,0x0A,,
0.248221000000000,0x00,,
0.248307000000000,0x02,,
0.248394000000000,0x00,,
0.248481000000000,0x02,,
0.248567000000000,0x02,,
0.248654000000000,0x00,,
0.248741000000000,0x00,,
0.248827000000000,0x00,,
0.248914000000000,0x00,,
0.249001000000000,0x00,,
0.249087000000000,0x00,,
0.249174000000000,0x00,,
0.249261000000000,0x00,,
0.249347000000000,0x00,,
0.249434000000000,0x00,,
0.249521000000000,0x00,,
0.249607000000000,0x00,,
0.249694000000000,0x00,,
0.249781000000000,0x00,,
0.249867000000000,0x00,,
0.249954000000000,0x00,,
0.250041000000000,0x00,,
0.250127000000000,0x00,,
0.250214000000000,0x00,,
0.250301000000000,0x00,,
0.250387000000000,0x00,,
0.250474000000000,0x00,,
0.250561000000000,0x00,,
0.250648000000000,0x00,,
0.250734000000000,0x00,,
0.250821000000000,0x00,,
0.250908000000000,0x00,,
0.250994000000000,0x00,,
0.251081000000000,0x00,,
0.251168000000000,0x00,,
0.251254000000000,0x00,,
0.251341000000000,0x00,,
0.251428000000000,0xDF,,
0.251514000000000,0x70,,
0.355462000000000,0xFE,,
0.355548000000000,0x21,,
0.355635000000000,0x01,,
0.355722000000000,0x0A,,
0.355808000000000,0x00,,
0.355895000000000,0x02,,
0.355982000000000,0x00,,
0.356068000000000,0x02,,
0.356155000000000,0x03,,
0.356242000000000,0x00,,
0.356328000000000,0x00,,
0.356415000000000,0x00,,
0.356502000000000,0x00,,
0.356588000000000,0x00,,
0.356675000000000,0x00,,
0.356762000000000,0x00,,
0.356848000000000,0x00,,
0.356935000000000,0x00,,
0.357022000000000,0x00,,
0.357109000000000,0x00,,
0.357195000000000,0x00,,
0.357282000000000,0x00,,
0.357369000000000,0x00,,
0.357455000000000,0x00,,
0.357542000000000,0x00,,
0.357629000000000,0x00,,
0.357715000000000,0x00,,
0.357802000000000,0x00,,
0.357889000000000,0x00,,
0.357975000000000,0x00,,
0.358062000000000,0x00,,
0.358149000000000,0x00,,
0.358235000000000,0x00,,
0.358322000000000,0x00,,
0.358409000000000,0x00,,
0.358495000000000,0x00,,
0.358582000000000,0x00,,
0.358669000000000,0x00,,
0.358756000000000,0x00,,
0.358842000000000,0x00,,
0.358929000000000,0x00,,
0.359016000000000,0x02,,
0.359102000000000,0x21,,
0.469499000000000,0xFE,,
0.469585000000000,0x21,,
0.469672000000000,0x01,,
0.469759000000000,0x0A,,
0.469845000000000,0x00,,
0.469932000000000,0x02,,
0.470019000000000,0x00,,
0.470105000000000,0x02,,
0.470192000000000,0x04,,
0.470279000000000,0x00,,
0.470365000000000,0x00,,
0.470452000000000,0x64,,
0.470539000000000,0x64,,
0.470626000000000,0x64,,
0.470712000000000,0x64,,
0.470799000000000,0x64,,
0.470886000000000,0x64,,
0.470972000000000,0x00,,
0.471059000000000,0x00,,
0.471146000000000,0x00,,
0.471232000000000,0x00,,
0.471319000000000,0x00,,
0.471406000000000,0x00,,
0.471492000000000,0x00,,
0.471579000000000,0x00,,
0.471666000000000,0x00,,
0.471752000000000,0x00,,
0.471839000000000,0x00,,
0.471926000000000,0x00,,
0.472012000000000,0x00,,
0.472099000000000,0x00,,
0.472186000000000,0x00,,
0.472272000000000,0x00,,
0.472359000000000,0x00,,
0.472446000000000,0x00,,
0.472532000000000,0x00,,
0.472619000000000,0x00,,
0.472706000000000,0x00,,
0.472793000000000,0x00,,
0.472879000000000,0x00,,
0.472966000000000,0x00,,
0.473053000000000,0x6B,,
0.473139000000000,0xB0,,
0.564504000000000,0xFE,,
0.564591000000000,0x02,,
0.564678000000000,0x01,,
0.564764000000000,0x0A,,
0.564851000000000,0x00,,
0.564938000000000,0x02,,
0.565024000000000,0x00,,
0.565111000000000,0x02,,
0.565198000000000,0x24,,
0.565284000000000,0x24,,
0.565371000000000,0xCE,,
0.565458000000000,0xBA,,
0.577628000000000,0xFE,,
0.577715000000000,0x21,,
0.577801000000000,0x01,,
0.577888000000000,0x0A,,
0.577975000000000,0x00,,
0.578062000000000,0x02,,
0.578148000000000,0x00,,
0.578235000000000,0x02,,
0.578322000000000,0x05,,
0.578408000000000,0x00,,
0.578495000000000,0x00,,
0.578582000000000,0x64,,
0.578668000000000,0x64,,
0.578755000000000,0x64,,
0.578842000000000,0x64,,
0.578928000000000,0x64,,
0.579015000000000,0x64,,
0.579102000000000,0x00,,
0.579188000000000,0x00,,
0.579275000000000,0x00,,
0.579362000000000,0x00,,
0.579448000000000,0x00,,
0.579535000000000,0x00,,
0.579622000000000,0x00,,
0.579708000000000,0x00,,
0.579795000000000,0x00,,
0.579882000000000,0x00,,
0.579968000000000,0x00,,
0.580055000000000,0x00,,
0.580142000000000,0x00,,
0.580228000000000,0x00,,
0.580315000000000,0x00,,
0.580402000000000,0x00,,
0.580488000000000,0x00,,
0.580575000000000,0x00,,
0.580662000000000,0x00,,
0.580749000000000,0x00,,
0.580835000000000,0x00,,
0.580922000000000,0x00,,
0.581009000000000,0x00,,
0.581095000000000,0x00,,
0.581182000000000,0xB6,,
0.581269000000000,0xE1,,
0.685542000000000,0xFE,,
0.685628000000000,0x21,,
0.685715000000000,0x01,,
0.685802000000000,0x0A,,
0.685888000000000,0x00,,
0.685975000000000,0x02,,
0.686062000000000,0x00,,
0.686148000000000,0x02,,
0.686235000000000,0x01,,
0.686322000000000,0x00,,
0.686409000000000,0x00,,
0.686495000000000,0x00,,
0.686582000000000,0x00,,
0.686669000000000,0x00,,
0.686755000000000,0x00,,
0.686842000000000,0x00,,
0.686929000000000,0x00,,
0.687015000000000,0x00,,
0.687102000000000,0x00,,
0.687189000000000,0x00,,
0.687275000000000,0x00,,
0.687362000000000,0x00,,
0.687449000000000,0x00,,
0.687535000000000,0x00,,
0.687622000000000,0x00,,
0.687709000000000,0x00,,
0.687795000000000,0x00,,
0.687882000000000,0x00,,
0.687969000000000,0x00,,
0.688056000000000,0x00,,
0.688142000000000,0x00,,
0.688229000000000,0x00,,
0.688316000000000,0x00,,
0.688402000000000,0x00,,
0.688489000000000,0x00,,
0.688576000000000,0x00,,
0.688662000000000,0x00,,
0.688749000000000,0x00,,
0.688836000000000,0x00,,
0.688922000000000,0x00,,
0.689009000000000,0x00,,
0.689096000000000,0xB8,,
0.689182000000000,0x82,,
0.794016000000000,0xFE,,
0.794103000000000,0x21,,
0.794190000000000,0x01,,
0.794276000000000,0x0A,,
0.794363000000000,0x00,,
0.794450000000000,0x02,,
0.794536000000000,0x00,,
0.794623000000000,0x02,,
0.794710000000000,0x02,,
0.794796000000000,0x00,,
0.794883000000000,0x00,,
0.794970000000000,0x00,,
0.795056000000000,0x00,,
0.795143000000000,0x00,,
0.795230000000000,0x00,,
0.795316000000000,0x00,,
0.795403000000000,0x00,,
0.795490000000000,0x00,,
0.795576000000000,0x00,,
0.795663000000000,0x00,,
0.795750000000000,0x00,,
0.795837000000000,0x00,,
0.795923000000000,0x00,,
0.796010000000000,0x00,,
0.796097000000000,0x00,,
0.796183000000000,0x00,,
0.796270000000000,0x00,,
0.796357000000000,0x00,,
0.796443000000000,0x00,,
0.796530000000000,0x00,,
0.796617000000000,0x00,,
0.796703000000000,0x00,,
0.796790000000000,0x00,,
0.796877000000000,0x00,,
0.796963000000000,0x00,,
0.797050000000000,0x00,,
0.797137000000000,0x00,,
0.797223000000000,0x00,,
0.797310000000000,0x00,,
0.797397000000000,0x00,,
0.797483000000000,0x00,,
0.797570000000000,0xDF,,
0.797657000000000,0x70,,
0.901156000000000,0xFE,,
0.901242000000000,0x21,,
0.901329000000000,0x01,,
0.901416000000000,0x0A,,
0.901503000000000,0x00,,
0.901589000000000,0x02,,
0.901676000000000,0x00,,
0.901763000000000,0x02,,
0.901849000000000,0x03,,
0.901936000000000,0x00,,
0.902023000000000,0x00,,
0.902109000000000,0x00,,
0.902196000000000,0x00,,
0.902283000000000,0x00,,
0.902369000000000,0x00,,
0.902456000000000,0x00,,
0.902543000000000,0x00,,
0.902629000000000,0x00,,
0.902716000000000,0x00,,
0.902803000000000,0x00,,
0.902889000000000,0x00,,
0.902976000000000,0x00,,
0.903063000000000,0x00,,
0.903150000000000,0x00,,
0.903236000000000,0x00,,
0.903323000000000,0x00,,
0.903410000000000,0x00,,
0.903496000000000,0x00,,
0.903583000000000,0x00,,
0.903670000000000,0x00,,
0.903756000000000,0x00,,
0.903843000000000,0x00,,
0.903930000000000,0x00,,
0.904016000000000,0x00,,
0.904103000000000,0x00,,
0.904190000000000,0x00,,
0.904276000000000,0x00,,
0.904363000000000,0x00,,
0.904450000000000,0x00,,
0.904536000000000,0x00,,
0.904623000000000,0x00,,
0.904710000000000,0x02,,
0.904796000000000,0x21,,
1.015931000000000,0xFE,,
1.016018000000000,0x21,,
1.016104000000000,0x01,,
1.016191000000000,0x0A,,
1.016278000000000,0x00,,
1.016365000000000,0x02,,
1.016451000000000,0x00,,
1.016538000000000,0x02,,
1.016625000000000,0x04,,
1.016711000000000,0x00,,
1.016798000000000,0x00,,
1.016885000000000,0x64,,
1.016971000000000,0x64,,
1.017058000000000,0x64,,
1.017145000000000,0x64,,
1.017231000000000,0x64,,
1.017318000000000,0x64,,
1.017405000000000,0x00,,
1.017491000000000,0x00,,
1.017578000000000,0x00,,
1.017665000000000,0x00,,
1.017751000000000,0x00,,
1.017838000000000,0x00,,
1.017925000000000,0x00,,
1.018012000000000,0x00,,
1.018098000000000,0x00,,
1.018185000000000,0x00,,
1.018272000000000,0x00,,
1.018358000000000,0x00,,
1.018445000000000,0x00,,
1.018532000000000,0x00,,
1.018618000000000,0x00,,
1.018705000000000,0x00,,
1.018792000000000,0x00,,
1.018878000000000,0x00,,
1.018965000000000,0x00,,
1.019052000000000,0x00,,
1.019138000000000,0x00,,
1.019225000000000,0x00,,
1.019312000000000,0x00,,
1.019399000000000,0x00,,
1.019485000000000,0x6B,,
1.019572000000000,0xB0,,
1.124812000000000,0xFE,,
1.124898000000000,0x21,,
1.124985000000000,0x01,,
1.125072000000000,0x0A,,
1.125158000000000,0x00,,
1.125245000000000,0x02,,
1.125332000000000,0x00,,
1.125418000000000,0x02,,
1.125505000000000,0x05,,
1.125592000000000,0x00,,
1.125678000000000,0x00,,
1.125765000000000,0x64,,
1.125852000000000,0x64,,
1.125938000000000,0x64,,
1.126025000000000,0x64,,
1.126112000000000,0x64,,
1.126199000000000,0x64,,
1.126285000000000,0x00,,
1.126372000000000,0x00,,
1.126459000000000,0x00,,
1.126545000000000,0x00,,
1.126632000000000,0x00,,
1.126719000000000,0x00,,
1.126805000000000,0x00,,
1.126892000000000,0x00,,
1.126979000000000,0x00,,
1.127065000000000,0x00,,
1.127152000000000,0x00,,
1.127239000000000,0x00,,
1.127325000000000,0x00,,
1.127412000000000,0x00,,
1.127499000000000,0x00,,
1.127585000000000,0x00,,
1.127672000000000,0x00,,
1.127759000000000,0x00,,
1.127845000000000,0x00,,
1.127932000000000,0x00,,
1.128019000000000,0x00,,
1.128105000000000,0x00,,
1.128192000000000,0x00,,
1.128279000000000,0x00,,
1.128365000000000,0xB6,,
1.128452000000000,0xE1,,
1.232742000000000,0xFE,,
1.232828000000000,0x21,,
1.232915000000000,0x01,,
1.233002000000000,0x0A,,
1.233088000000000,0x00,,
1.233175000000000,0x02,,
1.233262000000000,0x00,,
1.233349000000000,0x02,,
1.233435000000000,0x01,,
1.233522000000000,0x00,,
1.233609000000000,0x00,,
1.233695000000000,0x00,,
1.233782000000000,0x00,,
1.233869000000000,0x00,,
1.233955000000000,0x00,,
1.234042000000000,0x00,,
1.234129000000000,0x00,,
1.234215000000000,0x00,,
1.234302000000000,0x00,,
1.234389000000000,0x00,,
1.234475000000000,0x00,,
1.234562000000000,0x00,,
1.234649000000000,0x00,,
1.234735000000000,0x00,,
1.234822000000000,0x00,,
1.234909000000000,0x00,,
1.234995000000000,0x00,,
1.235082000000000,0x00,,
1.235169000000000,0x00,,
1.235255000000000,0x00,,
1.235342000000000,0x00,,
1.235429000000000,0x00,,
1.235515000000000,0x00,,
1.235602000000000,0x00,,
1.235689000000000,0x00,,
1.235775000000000,0x00,,
1.235862000000000,0x00,,
1.235949000000000,0x00,,
1.236035000000000,0x00,,
1.236122000000000,0x00,,
1.236209000000000,0x00,,
1.236295000000000,0xB8,,
1.236382000000000,0x82,,
1.340688000000000,0xFE,,
1.340775000000000,0x21,,
1.340861000000000,0x01,,
1.340948000000000,0x0A,,
1.341035000000000,0x00,,
1.341121000000000,0x02,,
1.341208000000000,0x00,,
1.341295000000000,0x02,,
1.341381000000000,0x02,,
1.341468000000000,0x00,,
1.341555000000000,0x00,,
1.341641000000000,0x00,,
1.341728000000000,0x00,,
1.341815000000000,0x00,,
1.341901000000000,0x00,,
1.341988000000000,0x00,,
1.342075000000000,0x00,,
1.342161000000000,0x00,,
1.342248000000000,0x00,,
1.342335000000000,0x00,,
1.342421000000000,0x00,,
1.342508000000000,0x00,,
1.342595000000000,0x00,,
1.342682000000000,0x00,,
1.342768000000000,0x00,,
1.342855000000000,0x00,,
1.342942000000000,0x00,,
1.343028000000000,0x00,,
1.343115000000000,0x00,,
1.343202000000000,0x00,,
1.343288000000000,0x00,,
1.343375000000000,0x00,,
1.343462000000000,0x00,,
1.343548000000000,0x00,,
1.343635000000000,0x00,,
1.343722000000000,0x00,,
1.343808000000000,0x00,,
1.343895000000000,0x00,,
1.343982000000000,0x00,,
1.344068000000000,0x00,,
1.344155000000000,0x00,,
1.344242000000000,0xDF,,
1.344328000000000,0x70,,
1.449192000000000,0xFE,,
1.449278000000000,0x21,,
1.449365000000000,0x01,,
1.449452000000000,0x0A,,
1.449538000000000,0x00,,
1.449625000000000,0x02,,
1.449712000000000,0x00,,
1.449798000000000,0x02,,
1.449885000000000,0x03,,
1.449972000000000,0x00,,
1.450059000000000,0x00,,
1.450145000000000,0x00,,
1.450232000000000,0x00,,
1.450319000000000,0x00,,
1.450405000000000,0x00,,
1.450492000000000,0x00,,
1.450579000000000,0x00,,
1.450665000000000,0x00,,
1.450752000000000,0x00,,
1.450839000000000,0x00,,
1.450925000000000,0x00,,
1.451012000000000,0x00,,
1.451099000000000,0x00,,
1.451185000000000,0x00,,
1.451272000000000,0x00,,
1.451359000000000,0x00,,
1.451445000000000,0x00,,
1.451532000000000,0x00,,
1.451619000000000,0x00,,
1.451705000000000,0x00,,
1.451792000000000,0x00,,
1.451879000000000,0x00,,
1.451965000000000,0x00,,
1.452052000000000,0x00,,
1.452139000000000,0x00,,
1.452225000000000,0x00,,
1.452312000000000,0x00,,
1.452399000000000,0x00,,
1.452486000000000,0x00,,
1.452572000000000,0x00,,
1.452659000000000,0x00,,
1.452746000000000,0x02,,
1.452832000000000,0x21,,
1.556465000000000,0xFE,,
1.556552000000000,0x21,,
1.556639000000000,0x01,,
1.556725000000000,0x0A,,
1.556812000000000,0x00,,
1.556899000000000,0x02,,
1.556985000000000,0x00,,
1.557072000000000,0x02,,
1.557159000000000,0x04,,
1.557245000000000,0x00,,
1.557332000000000,0x00,,
1.557419000000000,0x64,,
1.557505000000000,0x64,,
1.557592000000000,0x64,,
1.557679000000000,0x64,,
1.557765000000000,0x64,,
1.557852000000000,0x64,,
1.557939000000000,0x00,,
1.558026000000000,0x00,,
1.558112000000000,0x00,,
1.558199000000000,0x00,,
1.558286000000000,0x00,,
1.558372000000000,0x00,,
1.558459000000000,0x00,,
1.558546000000000,0x00,,
1.558632000000000,0x00,,
1.558719000000000,0x00,,
1.558806000000000,0x00,,
1.558892000000000,0x00,,
1.558979000000000,0x00,,
1.559066000000000,0x00,,
1.559152000000000,0x00,,
1.559239000000000,0x00,,
1.559326000000000,0x00,,
1.559412000000000,0x00,,
1.559499000000000,0x00,,
1.559586000000000,0x00,,
1.559672000000000,0x00,,
1.559759000000000,0x00,,
1.559846000000000,0x00,,
1.559932000000000,0x00,,
1.560019000000000,0x6B,,
1.560106000000000,0xB0,,
1.565151000000000,0xFE,,
1.565238000000000,0x02,,
1.565324000000000,0x01,,
1.565411000000000,0x0A,,
1.565498000000000,0x00,,
1.565584000000000,0x02,,
1.565671000000000,0x00,,
1.565758000000000,0x02,,
1.565844000000000,0x24,,
1.565931000000000,0x24,,
1.566018000000000,0xCE,,
1.566104000000000,0xBA,,
1.673602000000000,0xFE,,
1.673689000000000,0x21,,
1.673775000000000,0x01,,
1.673862000000000,0x0A,,
1.673949000000000,0x00,,
1.674035000000000,0x02,,
1.674122000000000,0x00,,
1.674209000000000,0x02,,
1.674296000000000,0x05,,
1.674382000000000,0x00,,
1.674469000000000,0x00,,
1.674556000000000,0x64,,
1.674642000000000,0x64,,
1.674729000000000,0x64,,
1.674816000000000,0x64,,
1.674902000000000,0x64,,
1.674989000000000,0x64,,
1.675076000000000,0x00,,
1.675162000000000,0x00,,
1.675249000000000,0x00,,
1.675336000000000,0x00,,
1.675422000000000,0x00,,
1.675509000000000,0x00,,
1.675596000000000,0x00,,
1.675682000000000,0x00,,
1.675769000000000,0x00,,
1.675856000000000,0x00,,
1.675942000000000,0x00,,
1.676029000000000,0x00,,
1.676116000000000,0x00,,
1.676202000000000,0x00,,
1.676289000000000,0x00,,
1.676376000000000,0x00,,
1.676462000000000,0x00,,
1.676549000000000,0x00,,
1.676636000000000,0x00,,
1.676722000000000,0x00,,
1.676809000000000,0x00,,
1.676896000000000,0x00,,
1.676982000000000,0x00,,
1.677069000000000,0x00,,
1.677156000000000,0xB6,,
1.677242000000000,0xE1,,
1.780745000000000,0xFE,,
1.780831000000000,0x21,,
1.780918000000000,0x01,,
1.781005000000000,0x0A,,
1.781091000000000,0x00,,
1.781178000000000,0x02,,
1.781265000000000,0x00,,
1.781352000000000,0x02,,
1.781438000000000,0x01,,
1.781525000000000,0x00,,
1.781612000000000,0x00,,
1.781698000000000,0x00,,
1.781785000000000,0x00,,
1.781872000000000,0x00,,
1.781958000000000,0x00,,
1.782045000000000,0x00,,
1.782132000000000,0x00,,
1.782218000000000,0x00,,
1.782305000000000,0x00,,
1.782392000000000,0x00,,
1.782478000000000,0x00,,
1.782565000000000,0x00,,
1.782652000000000,0x00,,
1.782738000000000,0x00,,
1.782825000000000,0x00,,
1.782912000000000,0x00,,
1.782998000000000,0x00,,
1.783085000000000,0x00,,
1.783172000000000,0x00,,
1.783258000000000,0x00,,
1.783345000000000,0x00,,
1.783432000000000,0x00,,
1.783519000000000,0x00,,
1.783605000000000,0x00,,
1.783692000000000,0x00,,
1.783779000000000,0x00,,
1.783865000000000,0x00,,
1.783952000000000,0x00,,
1.784039000000000,0x00,,
1.784125000000000,0x00,,
1.784212000000000,0x00,,
1.784299000000000,0xB8,,
1.784385000000000,0x82,,
1.888704000000000,0xFE,,
1.888791000000000,0x21,,
1.888878000000000,0x01,,
1.888964000000000,0x0A,,
1.889051000000000,0x00,,
1.889138000000000,0x02,,
1.889224000000000,0x00,,
1.889311000000000,0x02,,
1.889398000000000,0x02,,
1.889484000000000,0x00,,
1.889571000000000,0x00,,
1.889658000000000,0x00,,
